  can0  3C6   [8]  80 00 09 5C C8 CA B5 16
  can0  3C4   [8]  80 00 00 9F C8 CA B5 16
  can0  3C8   [8]  80 00 00 00 C8 CA B5 16
  can0  3C2   [8]  80 00 8B CC C8 CA B5 16
  can0  3C3   [8]  80 00 0B 3A C8 CA B5 16
  can0  3C9   [8]  80 00 00 01 C8 CA B5 16
  can0  3C5   [8]  7F FF FD 14 C8 CA B5 16
  can0  3C7   [8]  80 00 08 F8 C8 CA B5 16
  can0  3C6   [8]  80 00 09 D1 C8 CA B5 16
  can0  3C4   [8]  80 00 00 9B C8 CA B5 16
  can0  3C8   [8]  80 00 00 00 C8 CA B5 16
  can0  3C2   [8]  80 00 8F 4E C8 CA B5 16
  can0  3C3   [8]  80 00 0B 7D C8 CA B5 16
  can0  3C9   [8]  80 00 00 00 C8 CA B5 16
  can0  3C5   [8]  7F FF FD 0B C8 CA B5 16
  can0  3C7   [8]  80 00 09 27 C8 CA B5 16
  can0  3C6   [8]  80 00 0A 43 C8 CA B5 16
  can0  3C4   [8]  80 00 00 88 C8 CA B5 16
  can0  3C8   [8]  80 00 00 02 C8 CA B5 16
  can0  000   [4]  0C E3 48 DF
  can0  3C2   [8]  80 00 7F 0E C8 CA B5 16
  can0  3C3   [8]  80 00 0B F8 C8 CA B5 16
  can0  3C9   [8]  80 00 00 01 C8 CA B5 16
  can0  3C5   [8]  7F FF FD 1F C8 CA B5 16
  can0  3C7   [8]  80 00 09 B3 C8 CA B5 16
  can0  3C6   [8]  80 00 09 21 C8 CA B5 16
  can0  3C4   [8]  80 00 00 96 C8 CA B5 16
  can0  3C8   [8]  80 00 00 01 C8 CA B5 16
  can0  3C2   [8]  80 00 7E 21 C8 CA B5 16
  can0  3C3   [8]  80 00 0B A2 C8 CA B5 16
  can0  3C9   [8]  7F FF FF FD C8 CA B5 16
  can0  3C5   [8]  7F FF FD 17 C8 CA B5 16
  can0  3C7   [8]  80 00 0A 13 C8 CA B5 16
  can0  3C6   [8]  80 00 08 FF C8 CA B5 16
  can0  3C4   [8]  80 00 00 91 C8 CA B5 16
  can0  3C8   [8]  80 00 00 00 C8 CA B5 16
  can0  3C2   [8]  80 00 7E 53 C8 CA B5 16
  can0  3C3   [8]  80 00 0A E7 C8 CA B5 16
  can0  3C9   [8]  7F FF FF FD C8 CA B5 16
  can0  3C5   [8]  7F FF FD 23 C8 CA B5 16
  can0  3C7   [8]  80 00 0A D6 C8 CA B5 16
  can0  3C6   [8]  80 00 0A 53 C8 CA B5 16
  can0  3C4   [8]  80 00 00 8F C8 CA B5 16
  can0  3C8   [8]  80 00 00 00 C8 CA B5 16
  can0  3C2   [8]  80 00 8A FC C8 CA B5 16
  can0  3C3   [8]  80 00 0A FB C8 CA B5 16
  can0  3C9   [8]  80 00 00 02 C8 CA B5 16
  can0  3C5   [8]  7F FF FC FE C8 CA B5 16
  can0  3C7   [8]  80 00 09 C1 C8 CA B5 16
  can0  3C6   [8]  80 00 09 1A C8 CA B5 16
  can0  3C4   [8]  80 00 00 A0 C8 CA B5 16
  can0  3C8   [8]  80 00 00 00 C8 CA B5 16
  can0  3C2   [8]  80 00 92 E2 C8 CA B5 16
  can0  3C3   [8]  80 00 0B F5 C8 CA B5 16
  can0  3C9   [8]  7F FF FF FE C8 CA B5 16
  can0  3C5   [8]  7F FF FD 05 C8 CA B5 16
  can0  3C7   [8]  80 00 0C 3E C8 CA B5 16
  can0  3C6   [8]  80 00 09 77 C8 CA B5 16
  can0  3C4   [8]  80 00 00 90 C8 CA B5 16
  can0  3C8   [8]  80 00 00 00 C8 CA B5 16
  can0  3C2   [8]  80 00 84 22 C8 CA B5 16
  can0  3C3   [8]  80 00 0A 35 C8 CA B5 16
  can0  3C9   [8]  80 00 00 00 C8 CA B5 16
  can0  3C5   [8]  7F FF FD 2A C8 CA B5 16
  can0  3C7   [8]  80 00 0A F5 C8 CA B5 16
  can0  3C6   [8]  80 00 0A 33 C8 CA B5 16
  can0  3C4   [8]  80 00 00 86 C8 CA B5 16
  can0  3C8   [8]  80 00 00 03 C8 CA B5 16
  can0  3C2   [8]  80 00 7D 84 C8 CA B5 16
  can0  3C3   [8]  80 00 0B 13 C8 CA B5 16
  can0  3C9   [8]  80 00 00 02 C8 CA B5 16
  can0  3C5   [8]  7F FF FD 41 C8 CA B5 16
  can0  3C7   [8]  80 00 09 02 C8 CA B5 16
  can0  3C6   [8]  80 00 09 B1 C8 CA B5 16
  can0  3C4   [8]  80 00 00 90 C8 CA B5 16
  can0  3C8   [8]  80 00 00 01 C8 CA B5 16
  can0  3C2   [8]  80 00 7C 88 C8 CA B5 16
  can0  3C3   [8]  80 00 0A F7 C8 CA B5 16
  can0  3C9   [8]  7F FF FF FF C8 CA B5 16
  can0  3C5   [8]  7F FF FD 0D C8 CA B5 16
  can0  3C7   [8]  80 00 08 AD C8 CA B5 16
  can0  3C6   [8]  80 00 09 3F C8 CA B5 16
  can0  3C4   [8]  80 00 00 8C C8 CA B5 16
  can0  3C8   [8]  80 00 00 00 C8 CA B5 16
  can0  3C2   [8]  80 00 8B 61 C8 CA B5 16
  can0  3C3   [8]  80 00 0B 53 C8 CA B5 16
  can0  3C9   [8]  80 00 00 01 C8 CA B5 16
  can0  3C5   [8]  7F FF FD 23 C8 CA B5 16
  can0  3C7   [8]  80 00 08 D9 C8 CA B5 16
  can0  3C6   [8]  80 00 0A 3F C8 CA B5 16
  can0  3C4   [8]  80 00 00 91 C8 CA B5 16
  can0  3C8   [8]  7F FF FF FE C8 CA B5 16
  can0  3C2   [8]  80 00 8F 73 C8 CA B5 16
  can0  3C3   [8]  80 00 0A 6B C8 CA B5 16
  can0  3C9   [8]  7F FF FF FF C8 CA B5 16
  can0  3C5   [8]  7F FF FD 0B C8 CA B5 16
  can0  3C7   [8]  80 00 09 4A C8 CA B5 16
  can0  3C6   [8]  80 00 0A 20 C8 CA B5 16
  can0  3C4   [8]  80 00 00 98 C8 CA B5 16
  can0  3C8   [8]  80 00 00 00 C8 CA B5 16
  can0  000   [4]  0C E4 48 E9
  can0  3C2   [8]  80 00 82 1D C8 CA B5 16
  can0  3C3   [8]  80 00 0B 03 C8 CA B5 16
  can0  3C9   [8]  80 00 00 00 C8 CA B5 16
  can0  3C5   [8]  7F FF FD 0A C8 CA B5 16
  can0  3C7   [8]  80 00 09 EE C8 CA B5 16
  can0  3C6   [8]  80 00 09 09 C8 CA B5 16
  can0  3C4   [8]  80 00 00 97 C8 CA B5 16
  can0  3C8   [8]  80 00 00 01 C8 CA B5 16
  can0  3C2   [8]  80 00 7C E4 C8 CA B5 16
  can0  3C3   [8]  80 00 0A 93 C8 CA B5 16
  can0  3C9   [8]  80 00 00 00 C8 CA B5 16
  can0  3C5   [8]  7F FF FD 02 C8 CA B5 16
  can0  3C7   [8]  80 00 0A 0D C8 CA B5 16
  can0  3C6   [8]  80 00 09 09 C8 CA B5 16
  can0  3C4   [8]  80 00 00 85 C8 CA B5 16
  can0  3C8   [8]  7F FF FF FF C8 CA B5 16
  can0  3C2   [8]  80 00 7F 09 C8 CA B5 16
  can0  3C3   [8]  80 00 0B 3A C8 CA B5 16
  can0  3C9   [8]  7F FF FF FC C8 CA B5 16
  can0  3C5   [8]  7F FF FD 26 C8 CA B5 16
  can0  3C7   [8]  80 00 0A EC C8 CA B5 16
  can0  3C6   [8]  80 00 0A 32 C8 CA B5 16
  can0  3C4   [8]  80 00 00 8E C8 CA B5 16
  can0  3C8   [8]  80 00 00 00 C8 CA B5 16
  can0  3C2   [8]  80 00 8B DC C8 CA B5 16
  can0  3C3   [8]  80 00 0B 15 C8 CA B5 16
  can0  3C9   [8]  80 00 00 00 C8 CA B5 16
  can0  3C5   [8]  7F FF FD 1D C8 CA B5 16
  can0  3C7   [8]  80 00 0A 13 C8 CA B5 16
  can0  3C6   [8]  80 00 09 19 C8 CA B5 16
  can0  3C4   [8]  80 00 00 91 C8 CA B5 16
  can0  3C8   [8]  80 00 00 04 C8 CA B5 16
  can0  3C2   [8]  80 00 91 AF C8 CA B5 16
  can0  3C3   [8]  80 00 0B A6 C8 CA B5 16
  can0  3C9   [8]  80 00 00 01 C8 CA B5 16
  can0  3C5   [8]  7F FF FD 0C C8 CA B5 16
  can0  3C7   [8]  80 00 0C 29 C8 CA B5 16
  can0  3C6   [8]  80 00 09 6E C8 CA B5 16
  can0  3C4   [8]  80 00 00 91 C8 CA B5 16
  can0  3C8   [8]  80 00 00 01 C8 CA B5 16
  can0  3C2   [8]  80 00 81 0F C8 CA B5 16
  can0  3C3   [8]  80 00 0B 74 C8 CA B5 16
  can0  3C9   [8]  7F FF FF FD C8 CA B5 16
  can0  3C5   [8]  7F FF FC F4 C8 CA B5 16
  can0  3C7   [8]  80 00 0A 6A C8 CA B5 16
  can0  3C6   [8]  80 00 0A 73 C8 CA B5 16
  can0  3C4   [8]  80 00 00 85 C8 CA B5 16
  can0  3C8   [8]  80 00 00 03 C8 CA B5 16
  can0  3C2   [8]  80 00 7C 88 C8 CA B5 16
  can0  3C3   [8]  80 00 0A F2 C8 CA B5 16
  can0  3C9   [8]  80 00 00 00 C8 CA B5 16
  can0  3C5   [8]  7F FF FD 26 C8 CA B5 16
  can0  3C7   [8]  80 00 08 AD C8 CA B5 16
  can0  3C6   [8]  80 00 09 9F C8 CA B5 16
  can0  3C4   [8]  80 00 00 90 C8 CA B5 16
  can0  3C8   [8]  7F FF FF FF C8 CA B5 16
  can0  3C2   [8]  80 00 7E 36 C8 CA B5 16
  can0  3C3   [8]  80 00 0B A8 C8 CA B5 16
  can0  3C9   [8]  80 00 00 00 C8 CA B5 16
  can0  3C5   [8]  7F FF FD 0A C8 CA B5 16
  can0  3C7   [8]  80 00 08 CD C8 CA B5 16
  can0  3C6   [8]  80 00 09 59 C8 CA B5 16
  can0  3C4   [8]  80 00 00 94 C8 CA B5 16
  can0  3C8   [8]  80 00 00 01 C8 CA B5 16
  can0  3C2   [8]  80 00 89 32 C8 CA B5 16
  can0  3C3   [8]  80 00 0A 5F C8 CA B5 16
  can0  3C9   [8]  7F FF FF FE C8 CA B5 16
  can0  3C5   [8]  7F FF FD 30 C8 CA B5 16
  can0  3C7   [8]  80 00 09 0C C8 CA B5 16
  can0  3C6   [8]  80 00 0A 04 C8 CA B5 16
  can0  3C4   [8]  80 00 00 8B C8 CA B5 16
  can0  3C8   [8]  80 00 00 02 C8 CA B5 16
  can0  3C2   [8]  80 00 94 DC C8 CA B5 16
  can0  3C3   [8]  80 00 0E 37 C8 CA B5 16
  can0  3C9   [8]  80 00 00 01 C8 CA B5 16
  can0  3C5   [8]  7F FF FD 16 C8 CA B5 16
  can0  3C7   [8]  80 00 09 1B C8 CA B5 16
  can0  3C6   [8]  80 00 09 F3 C8 CA B5 16
  can0  3C4   [8]  80 00 00 99 C8 CA B5 16
  can0  3C8   [8]  80 00 00 00 C8 CA B5 16
  can0  000   [4]  0C E4 48 EB
  can0  3C2   [8]  80 00 86 42 C8 CA B5 16
  can0  3C3   [8]  80 00 0C 3F C8 CA B5 16
  can0  3C9   [8]  80 00 00 00 C8 CA B5 16
  can0  3C5   [8]  7F FF FD 1B C8 CA B5 16
  can0  3C7   [8]  80 00 09 EA C8 CA B5 16
  can0  3C6   [8]  80 00 08 DB C8 CA B5 16
  can0  3C4   [8]  80 00 00 91 C8 CA B5 16
  can0  3C8   [8]  80 00 00 00 C8 CA B5 16
  can0  3C2   [8]  80 00 7C 71 C8 CA B5 16
  can0  3C3   [8]  80 00 0B 4F C8 CA B5 16
  can0  3C9   [8]  7F FF FF FF C8 CA B5 16
  can0  3C5   [8]  7F FF FD 02 C8 CA B5 16
  can0  3C7   [8]  80 00 09 FD C8 CA B5 16
  can0  3C6   [8]  80 00 09 01 C8 CA B5 16
  can0  3C4   [8]  80 00 00 87 C8 CA B5 16
  can0  3C8   [8]  80 00 00 01 C8 CA B5 16
  can0  3C2   [8]  80 00 7C 99 C8 CA B5 16
  can0  3C3   [8]  80 00 09 C8 C8 CA B5 16
  can0  3C9   [8]  7F FF FF FE C8 CA B5 16
  can0  3C5   [8]  7F FF FD 35 C8 CA B5 16
  can0  3C7   [8]  80 00 0A CA C8 CA B5 16
  can0  3C6   [8]  80 00 0A 0D C8 CA B5 16
  can0  3C4   [8]  80 00 00 8E C8 CA B5 16
  can0  3C8   [8]  7F FF FF FF C8 CA B5 16
  can0  3C2   [8]  80 00 8C 95 C8 CA B5 16
  can0  3C3   [8]  80 00 0B C4 C8 CA B5 16
  can0  3C9   [8]  7F FF FF FF C8 CA B5 16
  can0  3C5   [8]  7F FF FD 32 C8 CA B5 16
  can0  3C7   [8]  80 00 0A 11 C8 CA B5 16
  can0  3C6   [8]  80 00 08 D8 C8 CA B5 16
  can0  3C4   [8]  80 00 00 8D C8 CA B5 16
  can0  3C8   [8]  80 00 00 01 C8 CA B5 16
  can0  3C2   [8]  80 00 92 3E C8 CA B5 16
  can0  3C3   [8]  80 00 0B 15 C8 CA B5 16
  can0  3C9   [8]  7F FF FF FE C8 CA B5 16
  can0  3C5   [8]  7F FF FD 14 C8 CA B5 16
  can0  3C7   [8]  80 00 0C 00 C8 CA B5 16
  can0  3C6   [8]  80 00 09 67 C8 CA B5 16
  can0  3C4   [8]  80 00 00 8A C8 CA B5 16
  can0  3C8   [8]  80 00 00 00 C8 CA B5 16
  can0  3C2   [8]  80 00 85 A9 C8 CA B5 16
  can0  3C3   [8]  80 00 0B 1D C8 CA B5 16
  can0  3C9   [8]  80 00 00 00 C8 CA B5 16
  can0  3C5   [8]  7F FF FD 05 C8 CA B5 16
  can0  3C7   [8]  80 00 0A 90 C8 CA B5 16
  can0  3C6   [8]  80 00 0A 87 C8 CA B5 16
  can0  3C4   [8]  80 00 00 82 C8 CA B5 16
  can0  3C8   [8]  80 00 00 00 C8 CA B5 16
  can0  3C2   [8]  80 00 7E 08 C8 CA B5 16
  can0  3C3   [8]  80 00 0B C0 C8 CA B5 16
  can0  3C9   [8]  80 00 00 00 C8 CA B5 16
  can0  3C5   [8]  7F FF FD 37 C8 CA B5 16
  can0  3C7   [8]  80 00 08 EF C8 CA B5 16
  can0  3C6   [8]  80 00 09 82 C8 CA B5 16
  can0  3C4   [8]  80 00 00 89 C8 CA B5 16
  can0  3C8   [8]  80 00 00 02 C8 CA B5 16
  can0  3C2   [8]  80 00 7C 5C C8 CA B5 16
  can0  3C3   [8]  80 00 0A A4 C8 CA B5 16
  can0  3C9   [8]  80 00 00 01 C8 CA B5 16
  can0  3C5   [8]  7F FF FC FD C8 CA B5 16
  can0  3C7   [8]  80 00 08 A6 C8 CA B5 16
  can0  3C6   [8]  80 00 09 44 C8 CA B5 16
  can0  3C4   [8]  80 00 00 95 C8 CA B5 16
  can0  3C8   [8]  80 00 00 01 C8 CA B5 16
  can0  3C2   [8]  80 00 89 8F C8 CA B5 16
  can0  3C3   [8]  80 00 0A 9E C8 CA B5 16
  can0  3C9   [8]  80 00 00 00 C8 CA B5 16
  can0  3C5   [8]  7F FF FD 22 C8 CA B5 16
  can0  3C7   [8]  80 00 08 F9 C8 CA B5 16
  can0  3C6   [8]  80 00 0A 13 C8 CA B5 16
  can0  3C4   [8]  80 00 00 96 C8 CA B5 16
  can0  3C8   [8]  80 00 00 01 C8 CA B5 16
  can0  3C2   [8]  80 00 8E 62 C8 CA B5 16
  can0  3C3   [8]  80 00 0A DA C8 CA B5 16
  can0  3C9   [8]  80 00 00 02 C8 CA B5 16
  can0  3C5   [8]  7F FF FD 12 C8 CA B5 16
  can0  3C7   [8]  80 00 09 38 C8 CA B5 16
  can0  3C6   [8]  80 00 0A 67 C8 CA B5 16
  can0  3C4   [8]  80 00 00 95 C8 CA B5 16
  can0  3C8   [8]  80 00 00 00 C8 CA B5 16
  can0  000   [4]  0C E4 48 F1
  can0  3C2   [8]  80 00 80 33 C8 CA B5 16
  can0  3C3   [8]  80 00 0B AE C8 CA B5 16
  can0  3C9   [8]  80 00 00 00 C8 CA B5 16
  can0  3C5   [8]  7F FF FD 11 C8 CA B5 16
  can0  3C7   [8]  80 00 09 D4 C8 CA B5 16
  can0  3C6   [8]  80 00 09 18 C8 CA B5 16
  can0  3C4   [8]  80 00 00 87 C8 CA B5 16
  can0  3C8   [8]  7F FF FF FF C8 CA B5 16
  can0  3C2   [8]  80 00 7B 59 C8 CA B5 16
  can0  3C3   [8]  80 00 0A B5 C8 CA B5 16
  can0  3C9   [8]  80 00 00 02 C8 CA B5 16
  can0  3C5   [8]  7F FF FC FB C8 CA B5 16
  can0  3C7   [8]  80 00 0A 1D C8 CA B5 16
  can0  3C6   [8]  80 00 09 24 C8 CA B5 16
  can0  3C4   [8]  80 00 00 81 C8 CA B5 16
  can0  3C8   [8]  80 00 00 01 C8 CA B5 16
  can0  3C2   [8]  80 00 7E 2C C8 CA B5 16
  can0  3C3   [8]  80 00 0B 57 C8 CA B5 16
  can0  3C9   [8]  80 00 00 03 C8 CA B5 16
  can0  3C5   [8]  7F FF FD 32 C8 CA B5 16
  can0  3C7   [8]  80 00 0A C9 C8 CA B5 16
  can0  3C6   [8]  80 00 0A 29 C8 CA B5 16
  can0  3C4   [8]  80 00 00 7F C8 CA B5 16
  can0  3C8   [8]  80 00 00 00 C8 CA B5 16
  can0  3C2   [8]  80 00 8B 5F C8 CA B5 16
  can0  3C3   [8]  80 00 0B 29 C8 CA B5 16
  can0  3C9   [8]  80 00 00 00 C8 CA B5 16
  can0  3C5   [8]  7F FF FD 16 C8 CA B5 16
  can0  3C7   [8]  80 00 09 D4 C8 CA B5 16
  can0  3C6   [8]  80 00 08 FD C8 CA B5 16
  can0  3C4   [8]  80 00 00 8A C8 CA B5 16
  can0  3C8   [8]  80 00 00 02 C8 CA B5 16
  can0  3C2   [8]  80 00 91 F4 C8 CA B5 16
  can0  3C3   [8]  80 00 0B F1 C8 CA B5 16
  can0  3C9   [8]  80 00 00 00 C8 CA B5 16
  can0  3C5   [8]  7F FF FD 15 C8 CA B5 16
  can0  3C7   [8]  80 00 0C 35 C8 CA B5 16
  can0  3C6   [8]  80 00 09 4E C8 CA B5 16
  can0  3C4   [8]  80 00 00 89 C8 CA B5 16
  can0  3C8   [8]  80 00 00 01 C8 CA B5 16
  can0  3C2   [8]  80 00 83 FD C8 CA B5 16
  can0  3C3   [8]  80 00 0B CB C8 CA B5 16
  can0  3C9   [8]  7F FF FF FF C8 CA B5 16
  can0  3C5   [8]  7F FF FD 08 C8 CA B5 16
  can0  3C7   [8]  80 00 0A C3 C8 CA B5 16
  can0  3C6   [8]  80 00 0A A2 C8 CA B5 16
  can0  3C4   [8]  80 00 00 85 C8 CA B5 16
  can0  3C8   [8]  80 00 00 00 C8 CA B5 16
  can0  3C2   [8]  80 00 7D AC C8 CA B5 16
  can0  3C3   [8]  80 00 0B C0 C8 CA B5 16
  can0  3C9   [8]  80 00 00 02 C8 CA B5 16
  can0  3C5   [8]  7F FF FD 21 C8 CA B5 16
  can0  3C7   [8]  80 00 08 DE C8 CA B5 16
  can0  3C6   [8]  80 00 09 65 C8 CA B5 16
  can0  3C4   [8]  80 00 00 91 C8 CA B5 16
  can0  3C8   [8]  7F FF FF FF C8 CA B5 16
  can0  3C2   [8]  80 00 7C 99 C8 CA B5 16
  can0  3C3   [8]  80 00 0A BB C8 CA B5 16
  can0  3C9   [8]  80 00 00 00 C8 CA B5 16
  can0  3C5   [8]  7F FF FD 1F C8 CA B5 16
  can0  3C7   [8]  80 00 08 B6 C8 CA B5 16
  can0  3C6   [8]  80 00 09 27 C8 CA B5 16
  can0  3C4   [8]  80 00 00 87 C8 CA B5 16
  can0  3C8   [8]  7F FF FF FE C8 CA B5 16
  can0  3C2   [8]  80 00 88 11 C8 CA B5 16
  can0  3C3   [8]  80 00 09 C7 C8 CA B5 16
  can0  3C9   [8]  80 00 00 00 C8 CA B5 16
  can0  3C5   [8]  7F FF FD 23 C8 CA B5 16
  can0  3C7   [8]  80 00 08 C7 C8 CA B5 16
  can0  3C6   [8]  80 00 0A 38 C8 CA B5 16
  can0  3C4   [8]  80 00 00 8D C8 CA B5 16
  can0  3C8   [8]  7F FF FF FF C8 CA B5 16
  can0  3C2   [8]  80 00 90 D5 C8 CA B5 16
  can0  3C3   [8]  80 00 0B 27 C8 CA B5 16
  can0  3C9   [8]  80 00 00 00 C8 CA B5 16
  can0  3C5   [8]  7F FF FC FD C8 CA B5 16
  can0  3C7   [8]  80 00 09 40 C8 CA B5 16
  can0  3C6   [8]  80 00 0A 3F C8 CA B5 16
  can0  3C4   [8]  80 00 00 8B C8 CA B5 16
  can0  3C8   [8]  80 00 00 00 C8 CA B5 16
  can0  000   [4]  0C E5 48 FA
  can0  3C2   [8]  80 00 7E 70 C8 CA B5 16
  can0  3C3   [8]  80 00 09 98 C8 CA B5 16
  can0  3C9   [8]  80 00 00 02 C8 CA B5 16
  can0  3C5   [8]  7F FF FD 14 C8 CA B5 16
  can0  3C7   [8]  80 00 09 BC C8 CA B5 16
  can0  3C6   [8]  80 00 08 FC C8 CA B5 16
  can0  3C4   [8]  80 00 00 9F C8 CA B5 16
  can0  3C8   [8]  80 00 00 01 C8 CA B5 16
  can0  3C2   [8]  80 00 79 74 C8 CA B5 16
  can0  3C3   [8]  80 00 09 DE C8 CA B5 16
  can0  3C9   [8]  7F FF FF FF C8 CA B5 16
  can0  3C5   [8]  7F FF FD 08 C8 CA B5 16
  can0  3C7   [8]  80 00 09 D2 C8 CA B5 16
  can0  3C6   [8]  80 00 08 BD C8 CA B5 16
  can0  3C4   [8]  80 00 00 88 C8 CA B5 16
  can0  3C8   [8]  7F FF FF FE C8 CA B5 16
  can0  3C2   [8]  80 00 80 32 C8 CA B5 16
  can0  3C3   [8]  80 00 0B 9C C8 CA B5 16
  can0  3C9   [8]  80 00 00 01 C8 CA B5 16
  can0  3C5   [8]  7F FF FD 17 C8 CA B5 16
  can0  3C7   [8]  80 00 0A FC C8 CA B5 16
  can0  3C6   [8]  80 00 0A 01 C8 CA B5 16
  can0  3C4   [8]  80 00 00 A1 C8 CA B5 16
  can0  3C8   [8]  80 00 00 00 C8 CA B5 16
  can0  3C2   [8]  80 00 89 DE C8 CA B5 16
  can0  3C3   [8]  80 00 0A 6B C8 CA B5 16
  can0  3C9   [8]  80 00 00 00 C8 CA B5 16
  can0  3C5   [8]  7F FF FD 08 C8 CA B5 16
  can0  3C7   [8]  80 00 09 F4 C8 CA B5 16
  can0  3C6   [8]  80 00 09 1D C8 CA B5 16
  can0  3C4   [8]  80 00 00 8C C8 CA B5 16
  can0  3C8   [8]  80 00 00 00 C8 CA B5 16
  can0  3C2   [8]  80 00 91 17 C8 CA B5 16
  can0  3C3   [8]  80 00 0A F1 C8 CA B5 16
  can0  3C9   [8]  7F FF FF FD C8 CA B5 16
  can0  3C5   [8]  7F FF FD 16 C8 CA B5 16
  can0  3C7   [8]  80 00 0B FF C8 CA B5 16
  can0  3C6   [8]  80 00 09 69 C8 CA B5 16
  can0  3C4   [8]  80 00 00 87 C8 CA B5 16
  can0  3C8   [8]  80 00 00 00 C8 CA B5 16
  can0  3C2   [8]  80 00 81 96 C8 CA B5 16
  can0  3C3   [8]  80 00 0B A5 C8 CA B5 16
  can0  3C9   [8]  7F FF FF FF C8 CA B5 16
  can0  3C5   [8]  7F FF FC F0 C8 CA B5 16
  can0  3C7   [8]  80 00 0A B9 C8 CA B5 16
  can0  3C6   [8]  80 00 0A C8 C8 CA B5 16
  can0  3C4   [8]  80 00 00 86 C8 CA B5 16
  can0  3C8   [8]  80 00 00 01 C8 CA B5 16
  can0  3C2   [8]  80 00 7B A8 C8 CA B5 16
  can0  3C3   [8]  80 00 0A 29 C8 CA B5 16
  can0  3C9   [8]  80 00 00 01 C8 CA B5 16
  can0  3C5   [8]  7F FF FD 22 C8 CA B5 16
  can0  3C7   [8]  80 00 09 0A C8 CA B5 16
  can0  3C6   [8]  80 00 09 66 C8 CA B5 16
  can0  3C4   [8]  80 00 00 83 C8 CA B5 16
  can0  3C8   [8]  80 00 00 02 C8 CA B5 16
  can0  3C2   [8]  80 00 7C 06 C8 CA B5 16
  can0  3C3   [8]  80 00 0B 3E C8 CA B5 16
  can0  3C9   [8]  80 00 00 03 C8 CA B5 16
  can0  3C5   [8]  7F FF FD 03 C8 CA B5 16
  can0  3C7   [8]  80 00 08 C9 C8 CA B5 16
  can0  3C6   [8]  80 00 09 2E C8 CA B5 16
  can0  3C4   [8]  80 00 00 90 C8 CA B5 16
  can0  3C8   [8]  80 00 00 00 C8 CA B5 16
  can0  3C2   [8]  80 00 89 E2 C8 CA B5 16
  can0  3C3   [8]  80 00 0B 08 C8 CA B5 16
  can0  3C9   [8]  80 00 00 02 C8 CA B5 16
  can0  3C5   [8]  7F FF FD 27 C8 CA B5 16
  can0  3C7   [8]  80 00 08 DB C8 CA B5 16
  can0  3C6   [8]  80 00 09 B5 C8 CA B5 16
  can0  3C4   [8]  80 00 00 92 C8 CA B5 16
  can0  3C8   [8]  7F FF FF FF C8 CA B5 16
  can0  3C2   [8]  80 00 90 62 C8 CA B5 16
  can0  3C3   [8]  80 00 0A F8 C8 CA B5 16
  can0  3C9   [8]  80 00 00 00 C8 CA B5 16
  can0  3C5   [8]  7F FF FD 0C C8 CA B5 16
  can0  3C7   [8]  80 00 09 4D C8 CA B5 16
  can0  3C6   [8]  80 00 0A 2C C8 CA B5 16
  can0  3C4   [8]  80 00 00 95 C8 CA B5 16
  can0  3C8   [8]  80 00 00 00 C8 CA B5 16
  can0  000   [4]  0C E4 48 F2
  can0  3C2   [8]  80 00 81 A7 C8 CA B5 16
  can0  3C3   [8]  80 00 0A 9B C8 CA B5 16
  can0  3C9   [8]  80 00 00 00 C8 CA B5 16
  can0  3C5   [8]  7F FF FD 1D C8 CA B5 16
  can0  3C7   [8]  80 00 09 FF C8 CA B5 16
  can0  3C6   [8]  80 00 09 19 C8 CA B5 16
  can0  3C4   [8]  80 00 00 90 C8 CA B5 16
  can0  3C8   [8]  80 00 00 00 C8 CA B5 16
  can0  3C2   [8]  80 00 7C 3D C8 CA B5 16
  can0  3C3   [8]  80 00 0A BC C8 CA B5 16
  can0  3C9   [8]  80 00 00 00 C8 CA B5 16
  can0  3C5   [8]  7F FF FD 0D C8 CA B5 16
  can0  3C7   [8]  80 00 09 EC C8 CA B5 16
  can0  3C6   [8]  80 00 08 FB C8 CA B5 16
  can0  3C4   [8]  80 00 00 9A C8 CA B5 16
  can0  3C8   [8]  7F FF FF FF C8 CA B5 16
  can0  3C2   [8]  80 00 7E 0D C8 CA B5 16
  can0  3C3   [8]  80 00 0B 8E C8 CA B5 16
  can0  3C9   [8]  80 00 00 00 C8 CA B5 16
  can0  3C5   [8]  7F FF FD 19 C8 CA B5 16
  can0  3C7   [8]  80 00 0A F4 C8 CA B5 16
  can0  3C6   [8]  80 00 0A 67 C8 CA B5 16
  can0  3C4   [8]  80 00 00 94 C8 CA B5 16
  can0  3C8   [8]  80 00 00 00 C8 CA B5 16
  can0  3C2   [8]  80 00 8A 29 C8 CA B5 16
  can0  3C3   [8]  80 00 0A 85 C8 CA B5 16
  can0  3C9   [8]  80 00 00 01 C8 CA B5 16
  can0  3C5   [8]  7F FF FD 04 C8 CA B5 16
  can0  3C7   [8]  80 00 0A 01 C8 CA B5 16
  can0  3C6   [8]  80 00 09 0D C8 CA B5 16
  can0  3C4   [8]  80 00 00 88 C8 CA B5 16
  can0  3C8   [8]  80 00 00 00 C8 CA B5 16
  can0  3C2   [8]  80 00 91 BC C8 CA B5 16
  can0  3C3   [8]  80 00 0A 73 C8 CA B5 16
  can0  3C9   [8]  80 00 00 01 C8 CA B5 16
  can0  3C5   [8]  7F FF FC F6 C8 CA B5 16
  can0  3C7   [8]  80 00 0B 96 C8 CA B5 16
  can0  3C6   [8]  80 00 09 7E C8 CA B5 16
  can0  3C4   [8]  80 00 00 83 C8 CA B5 16
  can0  3C8   [8]  7F FF FF FF C8 CA B5 16
  can0  3C2   [8]  80 00 83 B4 C8 CA B5 16
  can0  3C3   [8]  80 00 0B 5F C8 CA B5 16
  can0  3C9   [8]  80 00 00 00 C8 CA B5 16
  can0  3C5   [8]  7F FF FD 03 C8 CA B5 16
  can0  3C7   [8]  80 00 0A DD C8 CA B5 16
  can0  3C6   [8]  80 00 0A 8B C8 CA B5 16
  can0  3C4   [8]  80 00 00 97 C8 CA B5 16
  can0  3C8   [8]  80 00 00 01 C8 CA B5 16
  can0  3C2   [8]  80 00 82 19 C8 CA B5 16
  can0  3C3   [8]  80 00 0D 38 C8 CA B5 16
  can0  3C9   [8]  80 00 00 00 C8 CA B5 16
  can0  3C5   [8]  7F FF FD 35 C8 CA B5 16
  can0  3C7   [8]  80 00 08 BA C8 CA B5 16
  can0  3C6   [8]  80 00 09 7F C8 CA B5 16
  can0  3C4   [8]  80 00 00 98 C8 CA B5 16
  can0  3C8   [8]  80 00 00 00 C8 CA B5 16
  can0  3C2   [8]  80 00 79 BD C8 CA B5 16
  can0  3C3   [8]  80 00 09 A7 C8 CA B5 16
  can0  3C9   [8]  80 00 00 01 C8 CA B5 16
  can0  3C5   [8]  7F FF FD 07 C8 CA B5 16
  can0  3C7   [8]  80 00 08 9B C8 CA B5 16
  can0  3C6   [8]  80 00 09 64 C8 CA B5 16
  can0  3C4   [8]  80 00 00 8A C8 CA B5 16
  can0  3C8   [8]  80 00 00 00 C8 CA B5 16
  can0  3C2   [8]  80 00 8B 1E C8 CA B5 16
  can0  3C3   [8]  80 00 0B 70 C8 CA B5 16
  can0  3C9   [8]  80 00 00 00 C8 CA B5 16
  can0  3C5   [8]  7F FF FD 32 C8 CA B5 16
  can0  3C7   [8]  80 00 09 07 C8 CA B5 16
  can0  3C6   [8]  80 00 09 ED C8 CA B5 16
  can0  3C4   [8]  80 00 00 8F C8 CA B5 16
  can0  3C8   [8]  80 00 00 00 C8 CA B5 16
  can0  3C2   [8]  80 00 8F 95 C8 CA B5 16
  can0  3C3   [8]  80 00 0B 05 C8 CA B5 16
  can0  3C9   [8]  7F FF FF FC C8 CA B5 16
  can0  3C5   [8]  7F FF FD 1E C8 CA B5 16
  can0  3C7   [8]  80 00 09 61 C8 CA B5 16
  can0  3C6   [8]  80 00 09 ED C8 CA B5 16
  can0  3C4   [8]  80 00 00 93 C8 CA B5 16
  can0  3C8   [8]  7F FF FF FD C8 CA B5 16
  can0  000   [4]  0C E3 48 EB
  can0  3C2   [8]  80 00 7E FD C8 CA B5 16
  can0  3C3   [8]  80 00 0A BD C8 CA B5 16
  can0  3C9   [8]  80 00 00 00 C8 CA B5 16
  can0  3C5   [8]  7F FF FD 25 C8 CA B5 16
  can0  3C7   [8]  80 00 09 C3 C8 CA B5 16
  can0  3C6   [8]  80 00 09 1F C8 CA B5 16
  can0  3C4   [8]  80 00 00 95 C8 CA B5 16
  can0  3C8   [8]  80 00 00 02 C8 CA B5 16
  can0  3C2   [8]  80 00 7B D7 C8 CA B5 16
  can0  3C3   [8]  80 00 0B 2B C8 CA B5 16
  can0  3C9   [8]  80 00 00 01 C8 CA B5 16
  can0  3C5   [8]  7F FF FD 0B C8 CA B5 16
  can0  3C7   [8]  80 00 0A 08 C8 CA B5 16
  can0  3C6   [8]  80 00 09 2A C8 CA B5 16
  can0  3C4   [8]  80 00 00 93 C8 CA B5 16
  can0  3C8   [8]  7F FF FF FF C8 CA B5 16
  can0  3C2   [8]  80 00 7E 51 C8 CA B5 16
  can0  3C3   [8]  80 00 0B 30 C8 CA B5 16
  can0  3C9   [8]  80 00 00 00 C8 CA B5 16
  can0  3C5   [8]  7F FF FD 0F C8 CA B5 16
  can0  3C7   [8]  80 00 0B 2C C8 CA B5 16
  can0  3C6   [8]  80 00 0A 21 C8 CA B5 16
  can0  3C4   [8]  80 00 00 92 C8 CA B5 16
  can0  3C8   [8]  80 00 00 03 C8 CA B5 16
  can0  3C2   [8]  80 00 89 9F C8 CA B5 16
  can0  3C3   [8]  80 00 0A 38 C8 CA B5 16
  can0  3C9   [8]  80 00 00 00 C8 CA B5 16
  can0  3C5   [8]  7F FF FD 1A C8 CA B5 16
  can0  3C7   [8]  80 00 09 E8 C8 CA B5 16
  can0  3C6   [8]  80 00 09 13 C8 CA B5 16
  can0  3C4   [8]  80 00 00 93 C8 CA B5 16
  can0  3C8   [8]  80 00 00 00 C8 CA B5 16
  can0  3C2   [8]  80 00 91 89 C8 CA B5 16
  can0  3C3   [8]  80 00 0B C1 C8 CA B5 16
  can0  3C9   [8]  80 00 00 00 C8 CA B5 16
  can0  3C5   [8]  7F FF FD 09 C8 CA B5 16
  can0  3C7   [8]  80 00 0B 83 C8 CA B5 16
  can0  3C6   [8]  80 00 09 6D C8 CA B5 16
  can0  3C4   [8]  80 00 00 8A C8 CA B5 16
  can0  3C8   [8]  80 00 00 00 C8 CA B5 16
  can0  3C2   [8]  80 00 84 17 C8 CA B5 16
  can0  3C3   [8]  80 00 0A 9F C8 CA B5 16
  can0  3C9   [8]  80 00 00 02 C8 CA B5 16
  can0  3C5   [8]  7F FF FD 14 C8 CA B5 16
  can0  3C7   [8]  80 00 0A FA C8 CA B5 16
  can0  3C6   [8]  80 00 0A 45 C8 CA B5 16
  can0  3C4   [8]  80 00 00 91 C8 CA B5 16
  can0  3C8   [8]  80 00 00 00 C8 CA B5 16
  can0  3C2   [8]  80 00 7C C6 C8 CA B5 16
  can0  3C3   [8]  80 00 0A E2 C8 CA B5 16
  can0  3C9   [8]  80 00 00 02 C8 CA B5 16
  can0  3C5   [8]  7F FF FD 17 C8 CA B5 16
  can0  3C7   [8]  80 00 08 D4 C8 CA B5 16
  can0  3C6   [8]  80 00 09 33 C8 CA B5 16
  can0  3C4   [8]  80 00 00 94 C8 CA B5 16
  can0  3C8   [8]  7F FF FF FD C8 CA B5 16
  can0  3C2   [8]  80 00 7A CD C8 CA B5 16
  can0  3C3   [8]  80 00 0A 78 C8 CA B5 16
  can0  3C9   [8]  7F FF FF FF C8 CA B5 16
  can0  3C5   [8]  7F FF FD 20 C8 CA B5 16
  can0  3C7   [8]  80 00 08 9F C8 CA B5 16
  can0  3C6   [8]  80 00 09 3B C8 CA B5 16
  can0  3C4   [8]  80 00 00 8F C8 CA B5 16
  can0  3C8   [8]  80 00 00 00 C8 CA B5 16
  can0  3C2   [8]  80 00 8B 7C C8 CA B5 16
  can0  3C3   [8]  80 00 0B E0 C8 CA B5 16
  can0  3C9   [8]  80 00 00 01 C8 CA B5 16
  can0  3C5   [8]  7F FF FD 15 C8 CA B5 16
  can0  3C7   [8]  80 00 08 FC C8 CA B5 16
  can0  3C6   [8]  80 00 09 DF C8 CA B5 16
  can0  3C4   [8]  80 00 00 88 C8 CA B5 16
  can0  3C8   [8]  80 00 00 00 C8 CA B5 16
  can0  3C2   [8]  80 00 8E A8 C8 CA B5 16
  can0  3C3   [8]  80 00 0A 7D C8 CA B5 16
  can0  3C9   [8]  80 00 00 00 C8 CA B5 16
  can0  3C5   [8]  7F FF FC FF C8 CA B5 16
  can0  3C7   [8]  80 00 09 4E C8 CA B5 16
  can0  3C6   [8]  80 00 0A 69 C8 CA B5 16
  can0  3C4   [8]  80 00 00 8D C8 CA B5 16
  can0  3C8   [8]  80 00 00 00 C8 CA B5 16
  can0  000   [4]  0C E4 48 F4
  can0  3C2   [8]  80 00 81 8A C8 CA B5 16
  can0  3C3   [8]  80 00 0A 5D C8 CA B5 16
  can0  3C9   [8]  80 00 00 00 C8 CA B5 16
  can0  3C5   [8]  7F FF FD 32 C8 CA B5 16
  can0  3C7   [8]  80 00 09 B5 C8 CA B5 16
  can0  3C6   [8]  80 00 08 E4 C8 CA B5 16
  can0  3C4   [8]  80 00 00 88 C8 CA B5 16
  can0  3C8   [8]  80 00 00 00 C8 CA B5 16
  can0  3C2   [8]  80 00 7C D3 C8 CA B5 16
  can0  3C3   [8]  80 00 0B 4D C8 CA B5 16
  can0  3C9   [8]  7F FF FF FB C8 CA B5 16
  can0  3C5   [8]  7F FF FD 1A C8 CA B5 16
  can0  3C7   [8]  80 00 0A 01 C8 CA B5 16
  can0  3C6   [8]  80 00 09 0D C8 CA B5 16
  can0  3C4   [8]  80 00 00 92 C8 CA B5 16
  can0  3C8   [8]  80 00 00 01 C8 CA B5 16
  can0  3C2   [8]  80 00 7D FB C8 CA B5 16
  can0  3C3   [8]  80 00 0A 77 C8 CA B5 16
  can0  3C9   [8]  80 00 00 00 C8 CA B5 16
  can0  3C5   [8]  7F FF FD 0B C8 CA B5 16
  can0  3C7   [8]  80 00 0A E0 C8 CA B5 16
  can0  3C6   [8]  80 00 0A 1D C8 CA B5 16
  can0  3C4   [8]  80 00 00 8F C8 CA B5 16
  can0  3C8   [8]  80 00 00 02 C8 CA B5 16
  can0  3C2   [8]  80 00 8B EB C8 CA B5 16
  can0  3C3   [8]  80 00 0B 6E C8 CA B5 16
  can0  3C9   [8]  80 00 00 00 C8 CA B5 16
  can0  3C5   [8]  7F FF FD 32 C8 CA B5 16
  can0  3C7   [8]  80 00 09 D4 C8 CA B5 16
  can0  3C6   [8]  80 00 09 07 C8 CA B5 16
  can0  3C4   [8]  80 00 00 8F C8 CA B5 16
  can0  3C8   [8]  7F FF FF FE C8 CA B5 16
  can0  3C2   [8]  80 00 92 DD C8 CA B5 16
  can0  3C3   [8]  80 00 0B 60 C8 CA B5 16
  can0  3C9   [8]  80 00 00 01 C8 CA B5 16
  can0  3C5   [8]  7F FF FD 11 C8 CA B5 16
  can0  3C7   [8]  80 00 0B 60 C8 CA B5 16
  can0  3C6   [8]  80 00 09 90 C8 CA B5 16
  can0  3C4   [8]  80 00 00 91 C8 CA B5 16
  can0  3C8   [8]  7F FF FF FF C8 CA B5 16
  can0  3C2   [8]  80 00 82 7F C8 CA B5 16
  can0  3C3   [8]  80 00 0A BA C8 CA B5 16
  can0  3C9   [8]  80 00 00 01 C8 CA B5 16
  can0  3C5   [8]  7F FF FD 12 C8 CA B5 16
  can0  3C7   [8]  80 00 0B 14 C8 CA B5 16
  can0  3C6   [8]  80 00 0A A9 C8 CA B5 16
  can0  3C4   [8]  80 00 00 93 C8 CA B5 16
  can0  3C8   [8]  7F FF FF FF C8 CA B5 16
  can0  3C2   [8]  80 00 7B C2 C8 CA B5 16
  can0  3C3   [8]  80 00 0A 42 C8 CA B5 16
  can0  3C9   [8]  80 00 00 01 C8 CA B5 16
  can0  3C5   [8]  7F FF FD 20 C8 CA B5 16
  can0  3C7   [8]  80 00 08 FE C8 CA B5 16
  can0  3C6   [8]  80 00 09 7C C8 CA B5 16
  can0  3C4   [8]  80 00 00 99 C8 CA B5 16
  can0  3C8   [8]  80 00 00 00 C8 CA B5 16
  can0  3C2   [8]  80 00 7B 87 C8 CA B5 16
  can0  3C3   [8]  80 00 0B 49 C8 CA B5 16
  can0  3C9   [8]  80 00 00 01 C8 CA B5 16
  can0  3C5   [8]  7F FF FC FC C8 CA B5 16
  can0  3C7   [8]  80 00 08 AD C8 CA B5 16
  can0  3C6   [8]  80 00 09 23 C8 CA B5 16
  can0  3C4   [8]  80 00 00 8B C8 CA B5 16
  can0  3C8   [8]  80 00 00 02 C8 CA B5 16
  can0  3C2   [8]  80 00 8A B8 C8 CA B5 16
  can0  3C3   [8]  80 00 0A 93 C8 CA B5 16
  can0  3C9   [8]  80 00 00 00 C8 CA B5 16
  can0  3C5   [8]  7F FF FD 24 C8 CA B5 16
  can0  3C7   [8]  80 00 08 F0 C8 CA B5 16
  can0  3C6   [8]  80 00 09 F8 C8 CA B5 16
  can0  3C4   [8]  80 00 00 88 C8 CA B5 16
  can0  3C8   [8]  80 00 00 01 C8 CA B5 16
  can0  3C2   [8]  80 00 8D E2 C8 CA B5 16
  can0  3C3   [8]  80 00 0B 33 C8 CA B5 16
  can0  3C9   [8]  80 00 00 02 C8 CA B5 16
  can0  3C5   [8]  7F FF FD 12 C8 CA B5 16
  can0  3C7   [8]  80 00 09 2A C8 CA B5 16
  can0  3C6   [8]  80 00 0A 4D C8 CA B5 16
  can0  3C4   [8]  80 00 00 9D C8 CA B5 16
  can0  3C8   [8]  7F FF FF FF C8 CA B5 16
  can0  000   [4]  0C E3 48 F4
  can0  3C2   [8]  80 00 83 97 C8 CA B5 16
  can0  3C3   [8]  80 00 0A A5 C8 CA B5 16
  can0  3C9   [8]  80 00 00 01 C8 CA B5 16
  can0  3C5   [8]  7F FF FD 26 C8 CA B5 16
  can0  3C7   [8]  80 00 09 A5 C8 CA B5 16
  can0  3C6   [8]  80 00 08 EB C8 CA B5 16
  can0  3C4   [8]  80 00 00 8B C8 CA B5 16
  can0  3C8   [8]  80 00 00 00 C8 CA B5 16
  can0  3C2   [8]  80 00 7E 7B C8 CA B5 16
  can0  3C3   [8]  80 00 0C 16 C8 CA B5 16
  can0  3C9   [8]  80 00 00 01 C8 CA B5 16
  can0  3C5   [8]  7F FF FD 30 C8 CA B5 16
  can0  3C7   [8]  80 00 09 F2 C8 CA B5 16
  can0  3C6   [8]  80 00 09 41 C8 CA B5 16
  can0  3C4   [8]  80 00 00 8B C8 CA B5 16
  can0  3C8   [8]  80 00 00 02 C8 CA B5 16
  can0  3C2   [8]  80 00 7D C0 C8 CA B5 16
  can0  3C3   [8]  80 00 0A F2 C8 CA B5 16
  can0  3C9   [8]  80 00 00 03 C8 CA B5 16
  can0  3C5   [8]  7F FF FD 15 C8 CA B5 16
  can0  3C7   [8]  80 00 0A E8 C8 CA B5 16
  can0  3C6   [8]  80 00 0A 60 C8 CA B5 16
  can0  3C4   [8]  80 00 00 8E C8 CA B5 16
  can0  3C8   [8]  80 00 00 00 C8 CA B5 16
  can0  3C2   [8]  80 00 8A 41 C8 CA B5 16
  can0  3C3   [8]  80 00 0A AA C8 CA B5 16
  can0  3C9   [8]  7F FF FF FE C8 CA B5 16
  can0  3C5   [8]  7F FF FD 2A C8 CA B5 16
  can0  3C7   [8]  80 00 09 E4 C8 CA B5 16
  can0  3C6   [8]  80 00 08 EB C8 CA B5 16
  can0  3C4   [8]  80 00 00 8F C8 CA B5 16
  can0  3C8   [8]  80 00 00 01 C8 CA B5 16
  can0  3C2   [8]  80 00 93 15 C8 CA B5 16
  can0  3C3   [8]  80 00 0B CE C8 CA B5 16
  can0  3C9   [8]  80 00 00 00 C8 CA B5 16
  can0  3C5   [8]  7F FF FD 26 C8 CA B5 16
  can0  3C7   [8]  80 00 0B 33 C8 CA B5 16
  can0  3C6   [8]  80 00 09 5E C8 CA B5 16
  can0  3C4   [8]  80 00 00 90 C8 CA B5 16
  can0  3C8   [8]  80 00 00 02 C8 CA B5 16
  can0  3C2   [8]  80 00 84 95 C8 CA B5 16
  can0  3C3   [8]  80 00 09 C4 C8 CA B5 16
  can0  3C9   [8]  7F FF FF FD C8 CA B5 16
  can0  3C5   [8]  7F FF FD 25 C8 CA B5 16
  can0  3C7   [8]  80 00 0A E6 C8 CA B5 16
  can0  3C6   [8]  80 00 0A 80 C8 CA B5 16
  can0  3C4   [8]  80 00 00 85 C8 CA B5 16
  can0  3C8   [8]  80 00 00 01 C8 CA B5 16
  can0  3C2   [8]  80 00 7C 23 C8 CA B5 16
  can0  3C3   [8]  80 00 0A B1 C8 CA B5 16
  can0  3C9   [8]  80 00 00 02 C8 CA B5 16
  can0  3C5   [8]  7F FF FD 20 C8 CA B5 16
  can0  3C7   [8]  80 00 09 0D C8 CA B5 16
  can0  3C6   [8]  80 00 09 55 C8 CA B5 16
  can0  3C4   [8]  80 00 00 82 C8 CA B5 16
  can0  3C8   [8]  7F FF FF FE C8 CA B5 16
  can0  3C2   [8]  80 00 7F F9 C8 CA B5 16
  can0  3C3   [8]  80 00 0C AC C8 CA B5 16
  can0  3C9   [8]  7F FF FF FE C8 CA B5 16
  can0  3C5   [8]  7F FF FD 2E C8 CA B5 16
  can0  3C7   [8]  80 00 08 95 C8 CA B5 16
  can0  3C6   [8]  80 00 09 69 C8 CA B5 16
  can0  3C4   [8]  80 00 00 9C C8 CA B5 16
  can0  3C8   [8]  80 00 00 02 C8 CA B5 16
  can0  3C2   [8]  80 00 8A 8F C8 CA B5 16
  can0  3C3   [8]  80 00 0B 0B C8 CA B5 16
  can0  3C9   [8]  80 00 00 01 C8 CA B5 16
  can0  3C5   [8]  7F FF FC F3 C8 CA B5 16
  can0  3C7   [8]  80 00 08 DD C8 CA B5 16
  can0  3C6   [8]  80 00 09 D5 C8 CA B5 16
  can0  3C4   [8]  80 00 00 8E C8 CA B5 16
  can0  3C8   [8]  7F FF FF FF C8 CA B5 16
  can0  3C2   [8]  80 00 90 2F C8 CA B5 16
  can0  3C3   [8]  80 00 0B 29 C8 CA B5 16
  can0  3C9   [8]  80 00 00 00 C8 CA B5 16
  can0  3C5   [8]  7F FF FD 0E C8 CA B5 16
  can0  3C7   [8]  80 00 09 1B C8 CA B5 16
  can0  3C6   [8]  80 00 09 F0 C8 CA B5 16
  can0  3C4   [8]  80 00 00 85 C8 CA B5 16
  can0  3C8   [8]  80 00 00 01 C8 CA B5 16
  can0  000   [4]  0C E3 48 E9
  can0  3C2   [8]  80 00 81 33 C8 CA B5 16
  can0  3C3   [8]  80 00 0B EC C8 CA B5 16
  can0  3C9   [8]  7F FF FF FF C8 CA B5 16
  can0  3C5   [8]  7F FF FD 06 C8 CA B5 16
  can0  3C7   [8]  80 00 09 7E C8 CA B5 16
  can0  3C6   [8]  80 00 09 10 C8 CA B5 16
  can0  3C4   [8]  80 00 00 9C C8 CA B5 16
  can0  3C8   [8]  80 00 00 00 C8 CA B5 16
  can0  3C2   [8]  80 00 7C 15 C8 CA B5 16
  can0  3C3   [8]  80 00 0B 16 C8 CA B5 16
  can0  3C9   [8]  7F FF FF FF C8 CA B5 16
  can0  3C5   [8]  7F FF FD 29 C8 CA B5 16
  can0  3C7   [8]  80 00 09 B1 C8 CA B5 16
  can0  3C6   [8]  80 00 08 FC C8 CA B5 16
  can0  3C4   [8]  80 00 00 A9 C8 CA B5 16
  can0  3C8   [8]  80 00 00 00 C8 CA B5 16
  can0  3C2   [8]  80 00 7D 45 C8 CA B5 16
  can0  3C3   [8]  80 00 0B 3B C8 CA B5 16
  can0  3C9   [8]  7F FF FF FF C8 CA B5 16
  can0  3C5   [8]  7F FF FD 13 C8 CA B5 16
  can0  3C7   [8]  80 00 0A DB C8 CA B5 16
  can0  3C6   [8]  80 00 0A 08 C8 CA B5 16
  can0  3C4   [8]  80 00 00 92 C8 CA B5 16
  can0  3C8   [8]  7F FF FF FF C8 CA B5 16
  can0  3C2   [8]  80 00 8A 64 C8 CA B5 16
  can0  3C3   [8]  80 00 0A AE C8 CA B5 16
  can0  3C9   [8]  80 00 00 02 C8 CA B5 16
  can0  3C5   [8]  7F FF FD 1B C8 CA B5 16
  can0  3C7   [8]  80 00 09 A0 C8 CA B5 16
  can0  3C6   [8]  80 00 08 E0 C8 CA B5 16
  can0  3C4   [8]  80 00 00 97 C8 CA B5 16
  can0  3C8   [8]  80 00 00 02 C8 CA B5 16
  can0  3C2   [8]  80 00 91 F8 C8 CA B5 16
  can0  3C3   [8]  80 00 0B CB C8 CA B5 16
  can0  3C9   [8]  80 00 00 00 C8 CA B5 16
  can0  3C5   [8]  7F FF FD 27 C8 CA B5 16
  can0  3C7   [8]  80 00 0B 62 C8 CA B5 16
  can0  3C6   [8]  80 00 09 B6 C8 CA B5 16
  can0  3C4   [8]  80 00 00 97 C8 CA B5 16
  can0  3C8   [8]  80 00 00 00 C8 CA B5 16
  can0  3C2   [8]  80 00 84 27 C8 CA B5 16
  can0  3C3   [8]  80 00 0A 36 C8 CA B5 16
  can0  3C9   [8]  80 00 00 01 C8 CA B5 16
  can0  3C5   [8]  7F FF FD 0D C8 CA B5 16
  can0  3C7   [8]  80 00 0A 73 C8 CA B5 16
  can0  3C6   [8]  80 00 0A BD C8 CA B5 16
  can0  3C4   [8]  80 00 00 97 C8 CA B5 16
  can0  3C8   [8]  80 00 00 00 C8 CA B5 16
  can0  3C2   [8]  80 00 7C 9A C8 CA B5 16
  can0  3C3   [8]  80 00 0A 61 C8 CA B5 16
  can0  3C9   [8]  80 00 00 00 C8 CA B5 16
  can0  3C5   [8]  7F FF FD 30 C8 CA B5 16
  can0  3C7   [8]  80 00 08 B8 C8 CA B5 16
  can0  3C6   [8]  80 00 09 82 C8 CA B5 16
  can0  3C4   [8]  80 00 00 94 C8 CA B5 16
  can0  3C8   [8]  80 00 00 02 C8 CA B5 16
  can0  3C2   [8]  80 00 7C E7 C8 CA B5 16
  can0  3C3   [8]  80 00 0B 65 C8 CA B5 16
  can0  3C9   [8]  80 00 00 00 C8 CA B5 16
  can0  3C5   [8]  7F FF FD 22 C8 CA B5 16
  can0  3C7   [8]  80 00 08 7B C8 CA B5 16
  can0  3C6   [8]  80 00 09 7D C8 CA B5 16
  can0  3C4   [8]  80 00 00 8C C8 CA B5 16
  can0  3C8   [8]  7F FF FF FE C8 CA B5 16
  can0  3C2   [8]  80 00 88 81 C8 CA B5 16
  can0  3C3   [8]  80 00 0A 47 C8 CA B5 16
  can0  3C9   [8]  80 00 00 00 C8 CA B5 16
  can0  3C5   [8]  7F FF FC FA C8 CA B5 16
  can0  3C7   [8]  80 00 08 C8 C8 CA B5 16
  can0  3C6   [8]  80 00 0A 29 C8 CA B5 16
  can0  3C4   [8]  80 00 00 92 C8 CA B5 16
  can0  3C8   [8]  80 00 00 00 C8 CA B5 16
  can0  3C2   [8]  80 00 8D D4 C8 CA B5 16
  can0  3C3   [8]  80 00 09 F4 C8 CA B5 16
  can0  3C9   [8]  80 00 00 00 C8 CA B5 16
  can0  3C5   [8]  7F FF FD 06 C8 CA B5 16
  can0  3C7   [8]  80 00 09 26 C8 CA B5 16
  can0  3C6   [8]  80 00 0A 06 C8 CA B5 16
  can0  3C4   [8]  80 00 00 90 C8 CA B5 16
  can0  3C8   [8]  7F FF FF FF C8 CA B5 16
  can0  000   [4]  0C E2 48 F4
  can0  3C2   [8]  80 00 83 13 C8 CA B5 16
  can0  3C3   [8]  80 00 0B 52 C8 CA B5 16
  can0  3C9   [8]  80 00 00 00 C8 CA B5 16
  can0  3C5   [8]  7F FF FD 07 C8 CA B5 16
  can0  3C7   [8]  80 00 09 A8 C8 CA B5 16
  can0  3C6   [8]  80 00 08 D7 C8 CA B5 16
  can0  3C4   [8]  80 00 00 8C C8 CA B5 16
  can0  3C8   [8]  80 00 00 00 C8 CA B5 16
  can0  3C2   [8]  80 00 7A C4 C8 CA B5 16
  can0  3C3   [8]  80 00 0A A8 C8 CA B5 16
  can0  3C9   [8]  80 00 00 00 C8 CA B5 16
  can0  3C5   [8]  7F FF FD 33 C8 CA B5 16
  can0  3C7   [8]  80 00 09 E9 C8 CA B5 16
  can0  3C6   [8]  80 00 09 08 C8 CA B5 16
  can0  3C4   [8]  80 00 00 9A C8 CA B5 16
  can0  3C8   [8]  80 00 00 01 C8 CA B5 16
  can0  3C2   [8]  80 00 7C 6A C8 CA B5 16
  can0  3C3   [8]  80 00 0A 77 C8 CA B5 16
  can0  3C9   [8]  80 00 00 00 C8 CA B5 16
  can0  3C5   [8]  7F FF FC F0 C8 CA B5 16
  can0  3C7   [8]  80 00 0A E1 C8 CA B5 16
  can0  3C6   [8]  80 00 0A 2A C8 CA B5 16
  can0  3C4   [8]  80 00 00 92 C8 CA B5 16
  can0  3C8   [8]  80 00 00 00 C8 CA B5 16
  can0  3C2   [8]  80 00 8A C8 C8 CA B5 16
  can0  3C3   [8]  80 00 0B 18 C8 CA B5 16
  can0  3C9   [8]  80 00 00 01 C8 CA B5 16
  can0  3C5   [8]  7F FF FD 23 C8 CA B5 16
  can0  3C7   [8]  80 00 09 B5 C8 CA B5 16
  can0  3C6   [8]  80 00 09 21 C8 CA B5 16
  can0  3C4   [8]  80 00 00 91 C8 CA B5 16
  can0  3C8   [8]  80 00 00 00 C8 CA B5 16
  can0  3C2   [8]  80 00 90 63 C8 CA B5 16
  can0  3C3   [8]  80 00 0A C5 C8 CA B5 16
  can0  3C9   [8]  7F FF FF FE C8 CA B5 16
  can0  3C5   [8]  7F FF FD 09 C8 CA B5 16
  can0  3C7   [8]  80 00 0B 20 C8 CA B5 16
  can0  3C6   [8]  80 00 09 7B C8 CA B5 16
  can0  3C4   [8]  80 00 00 A6 C8 CA B5 16
  can0  3C8   [8]  80 00 00 00 C8 CA B5 16
  can0  3C2   [8]  80 00 7F C6 C8 CA B5 16
  can0  3C3   [8]  80 00 0A 8C C8 CA B5 16
  can0  3C9   [8]  80 00 00 00 C8 CA B5 16
  can0  3C5   [8]  7F FF FD 1D C8 CA B5 16
  can0  3C7   [8]  80 00 0A 63 C8 CA B5 16
  can0  3C6   [8]  80 00 0A 65 C8 CA B5 16
  can0  3C4   [8]  80 00 00 89 C8 CA B5 16
  can0  3C8   [8]  80 00 00 01 C8 CA B5 16
  can0  3C2   [8]  80 00 7B D9 C8 CA B5 16
  can0  3C3   [8]  80 00 0A A6 C8 CA B5 16
  can0  3C9   [8]  7F FF FF FC C8 CA B5 16
  can0  3C5   [8]  7F FF FD 19 C8 CA B5 16
  can0  3C7   [8]  80 00 08 71 C8 CA B5 16
  can0  3C6   [8]  80 00 09 B9 C8 CA B5 16
  can0  3C4   [8]  80 00 00 8F C8 CA B5 16
  can0  3C8   [8]  7F FF FF FF C8 CA B5 16
  can0  3C2   [8]  80 00 7B 7C C8 CA B5 16
  can0  3C3   [8]  80 00 0A F0 C8 CA B5 16
  can0  3C9   [8]  80 00 00 00 C8 CA B5 16
  can0  3C5   [8]  7F FF FD 15 C8 CA B5 16
  can0  3C7   [8]  80 00 08 7B C8 CA B5 16
  can0  3C6   [8]  80 00 09 7C C8 CA B5 16
  can0  3C4   [8]  80 00 00 94 C8 CA B5 16
  can0  3C8   [8]  80 00 00 00 C8 CA B5 16
  can0  3C2   [8]  80 00 89 0E C8 CA B5 16
  can0  3C3   [8]  80 00 0B 1F C8 CA B5 16
  can0  3C9   [8]  80 00 00 02 C8 CA B5 16
  can0  3C5   [8]  7F FF FC F3 C8 CA B5 16
  can0  3C7   [8]  80 00 08 BF C8 CA B5 16
  can0  3C6   [8]  80 00 0A 3E C8 CA B5 16
  can0  3C4   [8]  80 00 00 8A C8 CA B5 16
  can0  3C8   [8]  7F FF FF FF C8 CA B5 16
  can0  3C2   [8]  80 00 90 20 C8 CA B5 16
  can0  3C3   [8]  80 00 0B 38 C8 CA B5 16
  can0  3C9   [8]  80 00 00 00 C8 CA B5 16
  can0  3C5   [8]  7F FF FD 1F C8 CA B5 16
  can0  3C7   [8]  80 00 08 FF C8 CA B5 16
  can0  3C6   [8]  80 00 0A 69 C8 CA B5 16
  can0  3C4   [8]  80 00 00 96 C8 CA B5 16
  can0  3C8   [8]  80 00 00 00 C8 CA B5 16
  can0  000   [4]  0C E3 48 E9
  can0  3C2   [8]  80 00 83 64 C8 CA B5 16
  can0  3C3   [8]  80 00 0B 57 C8 CA B5 16
  can0  3C9   [8]  80 00 00 00 C8 CA B5 16
  can0  3C5   [8]  7F FF FC E8 C8 CA B5 16
  can0  3C7   [8]  80 00 09 AE C8 CA B5 16
  can0  3C6   [8]  80 00 08 CF C8 CA B5 16
  can0  3C4   [8]  80 00 00 88 C8 CA B5 16
  can0  3C8   [8]  80 00 00 00 C8 CA B5 16
  can0  3C2   [8]  80 00 7B 4F C8 CA B5 16
  can0  3C3   [8]  80 00 0A A2 C8 CA B5 16
  can0  3C9   [8]  80 00 00 00 C8 CA B5 16
  can0  3C5   [8]  7F FF FD 09 C8 CA B5 16
  can0  3C7   [8]  80 00 09 ED C8 CA B5 16
  can0  3C6   [8]  80 00 08 DC C8 CA B5 16
  can0  3C4   [8]  80 00 00 88 C8 CA B5 16
  can0  3C8   [8]  7F FF FF FF C8 CA B5 16
  can0  3C2   [8]  80 00 7D 75 C8 CA B5 16
  can0  3C3   [8]  80 00 0B 63 C8 CA B5 16
  can0  3C9   [8]  80 00 00 01 C8 CA B5 16
  can0  3C5   [8]  7F FF FD 05 C8 CA B5 16
  can0  3C7   [8]  80 00 0A CC C8 CA B5 16
  can0  3C6   [8]  80 00 0A 34 C8 CA B5 16
  can0  3C4   [8]  80 00 00 8C C8 CA B5 16
  can0  3C8   [8]  7F FF FF FF C8 CA B5 16
  can0  3C2   [8]  80 00 8B 86 C8 CA B5 16
  can0  3C3   [8]  80 00 0B B6 C8 CA B5 16
  can0  3C9   [8]  7F FF FF FF C8 CA B5 16
  can0  3C5   [8]  7F FF FD 0B C8 CA B5 16
  can0  3C7   [8]  80 00 09 6F C8 CA B5 16
  can0  3C6   [8]  80 00 09 21 C8 CA B5 16
  can0  3C4   [8]  80 00 00 8B C8 CA B5 16
  can0  3C8   [8]  80 00 00 00 C8 CA B5 16
  can0  3C2   [8]  80 00 91 B6 C8 CA B5 16
  can0  3C3   [8]  80 00 0B A8 C8 CA B5 16
  can0  3C9   [8]  80 00 00 01 C8 CA B5 16
  can0  3C5   [8]  7F FF FD 1C C8 CA B5 16
  can0  3C7   [8]  80 00 0B 41 C8 CA B5 16
  can0  3C6   [8]  80 00 09 56 C8 CA B5 16
  can0  3C4   [8]  80 00 00 8E C8 CA B5 16
  can0  3C8   [8]  80 00 00 01 C8 CA B5 16
  can0  3C2   [8]  80 00 84 4C C8 CA B5 16
  can0  3C3   [8]  80 00 0A B4 C8 CA B5 16
  can0  3C9   [8]  80 00 00 00 C8 CA B5 16
  can0  3C5   [8]  7F FF FD 14 C8 CA B5 16
  can0  3C7   [8]  80 00 0A 3D C8 CA B5 16
  can0  3C6   [8]  80 00 0A 43 C8 CA B5 16
  can0  3C4   [8]  80 00 00 90 C8 CA B5 16
  can0  3C8   [8]  80 00 00 00 C8 CA B5 16
  can0  3C2   [8]  80 00 7F 4D C8 CA B5 16
  can0  3C3   [8]  80 00 0B F6 C8 CA B5 16
  can0  3C9   [8]  80 00 00 01 C8 CA B5 16
  can0  3C5   [8]  7F FF FD 1B C8 CA B5 16
  can0  3C7   [8]  80 00 08 B4 C8 CA B5 16
  can0  3C6   [8]  80 00 09 7D C8 CA B5 16
  can0  3C4   [8]  80 00 00 9F C8 CA B5 16
  can0  3C8   [8]  7F FF FF FE C8 CA B5 16
  can0  3C2   [8]  80 00 7C 5B C8 CA B5 16
  can0  3C3   [8]  80 00 0A 94 C8 CA B5 16
  can0  3C9   [8]  80 00 00 00 C8 CA B5 16
  can0  3C5   [8]  7F FF FD 1E C8 CA B5 16
  can0  3C7   [8]  80 00 08 8B C8 CA B5 16
  can0  3C6   [8]  80 00 09 5F C8 CA B5 16
  can0  3C4   [8]  80 00 00 88 C8 CA B5 16
  can0  3C8   [8]  80 00 00 01 C8 CA B5 16
  can0  3C2   [8]  80 00 87 F4 C8 CA B5 16
  can0  3C3   [8]  80 00 09 B6 C8 CA B5 16
  can0  3C9   [8]  7F FF FF FD C8 CA B5 16
  can0  3C5   [8]  7F FF FC FB C8 CA B5 16
  can0  3C7   [8]  80 00 08 7E C8 CA B5 16
  can0  3C6   [8]  80 00 09 E1 C8 CA B5 16
  can0  3C4   [8]  80 00 00 8A C8 CA B5 16
  can0  3C8   [8]  7F FF FF FF C8 CA B5 16
  can0  3C2   [8]  80 00 92 EF C8 CA B5 16
  can0  3C3   [8]  80 00 0D 27 C8 CA B5 16
  can0  3C9   [8]  80 00 00 00 C8 CA B5 16
  can0  3C5   [8]  7F FF FD 1F C8 CA B5 16
  can0  3C7   [8]  80 00 09 1F C8 CA B5 16
  can0  3C6   [8]  80 00 0A 20 C8 CA B5 16
  can0  3C4   [8]  80 00 00 8B C8 CA B5 16
  can0  3C8   [8]  80 00 00 00 C8 CA B5 16
  can0  000   [4]  0C E4 48 E8
  can0  3C2   [8]  80 00 81 AC C8 CA B5 16
  can0  3C3   [8]  80 00 0B 9B C8 CA B5 16
  can0  3C9   [8]  7F FF FF FC C8 CA B5 16
  can0  3C5   [8]  7F FF FD 1A C8 CA B5 16
  can0  3C7   [8]  80 00 09 B9 C8 CA B5 16
  can0  3C6   [8]  80 00 08 F7 C8 CA B5 16
  can0  3C4   [8]  80 00 00 99 C8 CA B5 16
  can0  3C8   [8]  80 00 00 00 C8 CA B5 16
  can0  3C2   [8]  80 00 7B F2 C8 CA B5 16
  can0  3C3   [8]  80 00 0A F1 C8 CA B5 16
  can0  3C9   [8]  80 00 00 02 C8 CA B5 16
  can0  3C5   [8]  7F FF FD 1B C8 CA B5 16
  can0  3C7   [8]  80 00 09 ED C8 CA B5 16
  can0  3C6   [8]  80 00 09 01 C8 CA B5 16
  can0  3C4   [8]  80 00 00 7E C8 CA B5 16
  can0  3C8   [8]  7F FF FF FF C8 CA B5 16
  can0  3C2   [8]  80 00 7D A5 C8 CA B5 16
  can0  3C3   [8]  80 00 0A DC C8 CA B5 16
  can0  3C9   [8]  80 00 00 02 C8 CA B5 16
  can0  3C5   [8]  7F FF FD 19 C8 CA B5 16
  can0  3C7   [8]  80 00 0B 13 C8 CA B5 16
  can0  3C6   [8]  80 00 0A 6C C8 CA B5 16
  can0  3C4   [8]  80 00 00 91 C8 CA B5 16
  can0  3C8   [8]  80 00 00 00 C8 CA B5 16
  can0  3C2   [8]  80 00 8A 6B C8 CA B5 16
  can0  3C3   [8]  80 00 0A FA C8 CA B5 16
  can0  3C9   [8]  80 00 00 00 C8 CA B5 16
  can0  3C5   [8]  7F FF FD 20 C8 CA B5 16
  can0  3C7   [8]  80 00 09 C8 C8 CA B5 16
  can0  3C6   [8]  80 00 08 BE C8 CA B5 16
  can0  3C4   [8]  80 00 00 7D C8 CA B5 16
  can0  3C8   [8]  80 00 00 00 C8 CA B5 16
  can0  3C2   [8]  80 00 90 45 C8 CA B5 16
  can0  3C3   [8]  80 00 0A BC C8 CA B5 16
  can0  3C9   [8]  80 00 00 02 C8 CA B5 16
  can0  3C5   [8]  7F FF FD 00 C8 CA B5 16
  can0  3C7   [8]  80 00 0B B7 C8 CA B5 16
  can0  3C6   [8]  80 00 09 4D C8 CA B5 16
  can0  3C4   [8]  80 00 00 7B C8 CA B5 16
  can0  3C8   [8]  7F FF FF FE C8 CA B5 16
  can0  3C2   [8]  80 00 86 C3 C8 CA B5 16
  can0  3C3   [8]  80 00 0B E4 C8 CA B5 16
  can0  3C9   [8]  80 00 00 01 C8 CA B5 16
  can0  3C5   [8]  7F FF FD 01 C8 CA B5 16
  can0  3C7   [8]  80 00 09 D8 C8 CA B5 16
  can0  3C6   [8]  80 00 0A D1 C8 CA B5 16
  can0  3C4   [8]  80 00 00 8E C8 CA B5 16
  can0  3C8   [8]  80 00 00 00 C8 CA B5 16
  can0  3C2   [8]  80 00 7D 7F C8 CA B5 16
  can0  3C3   [8]  80 00 0B 1F C8 CA B5 16
  can0  3C9   [8]  80 00 00 00 C8 CA B5 16
  can0  3C5   [8]  7F FF FD 12 C8 CA B5 16
  can0  3C7   [8]  80 00 08 9C C8 CA B5 16
  can0  3C6   [8]  80 00 09 9B C8 CA B5 16
  can0  3C4   [8]  80 00 00 96 C8 CA B5 16
  can0  3C8   [8]  80 00 00 00 C8 CA B5 16
  can0  3C2   [8]  80 00 7B 21 C8 CA B5 16
  can0  3C3   [8]  80 00 0A E2 C8 CA B5 16
  can0  3C9   [8]  80 00 00 00 C8 CA B5 16
  can0  3C5   [8]  7F FF FD 16 C8 CA B5 16
  can0  3C7   [8]  80 00 08 8A C8 CA B5 16
  can0  3C6   [8]  80 00 09 77 C8 CA B5 16
  can0  3C4   [8]  80 00 00 8E C8 CA B5 16
  can0  3C8   [8]  80 00 00 02 C8 CA B5 16
  can0  3C2   [8]  80 00 8A 35 C8 CA B5 16
  can0  3C3   [8]  80 00 0B 64 C8 CA B5 16
  can0  3C9   [8]  80 00 00 00 C8 CA B5 16
  can0  3C5   [8]  7F FF FD 0D C8 CA B5 16
  can0  3C7   [8]  80 00 08 DE C8 CA B5 16
  can0  3C6   [8]  80 00 0A 06 C8 CA B5 16
  can0  3C4   [8]  80 00 00 89 C8 CA B5 16
  can0  3C8   [8]  80 00 00 00 C8 CA B5 16
  can0  3C2   [8]  80 00 90 A9 C8 CA B5 16
  can0  3C3   [8]  80 00 0B F1 C8 CA B5 16
  can0  3C9   [8]  80 00 00 00 C8 CA B5 16
  can0  3C5   [8]  7F FF FD 25 C8 CA B5 16
  can0  3C7   [8]  80 00 08 DE C8 CA B5 16
  can0  3C6   [8]  80 00 0A 4E C8 CA B5 16
  can0  3C4   [8]  80 00 00 86 C8 CA B5 16
  can0  3C8   [8]  7F FF FF FF C8 CA B5 16
  can0  000   [4]  0C E4 48 F4
  can0  3C2   [8]  80 00 82 F3 C8 CA B5 16
  can0  3C3   [8]  80 00 0A 99 C8 CA B5 16
  can0  3C9   [8]  7F FF FF FF C8 CA B5 16
  can0  3C5   [8]  7F FF FD 12 C8 CA B5 16
  can0  3C7   [8]  80 00 09 A5 C8 CA B5 16
  can0  3C6   [8]  80 00 09 1D C8 CA B5 16
  can0  3C4   [8]  80 00 00 99 C8 CA B5 16
  can0  3C8   [8]  7F FF FF FF C8 CA B5 16
  can0  3C2   [8]  80 00 7A 64 C8 CA B5 16
  can0  3C3   [8]  80 00 0A D5 C8 CA B5 16
  can0  3C9   [8]  80 00 00 03 C8 CA B5 16
  can0  3C5   [8]  7F FF FD 19 C8 CA B5 16
  can0  3C7   [8]  80 00 09 C1 C8 CA B5 16
  can0  3C6   [8]  80 00 09 3C C8 CA B5 16
  can0  3C4   [8]  80 00 00 95 C8 CA B5 16
  can0  3C8   [8]  80 00 00 01 C8 CA B5 16
  can0  3C2   [8]  80 00 7E 57 C8 CA B5 16
  can0  3C3   [8]  80 00 0B 4A C8 CA B5 16
  can0  3C9   [8]  80 00 00 02 C8 CA B5 16
  can0  3C5   [8]  7F FF FD 02 C8 CA B5 16
  can0  3C7   [8]  80 00 0A C4 C8 CA B5 16
  can0  3C6   [8]  80 00 0A 06 C8 CA B5 16
  can0  3C4   [8]  80 00 00 93 C8 CA B5 16
  can0  3C8   [8]  80 00 00 00 C8 CA B5 16
  can0  3C2   [8]  80 00 89 72 C8 CA B5 16
  can0  3C3   [8]  80 00 0A 66 C8 CA B5 16
  can0  3C9   [8]  80 00 00 00 C8 CA B5 16
  can0  3C5   [8]  7F FF FD 20 C8 CA B5 16
  can0  3C7   [8]  80 00 09 A6 C8 CA B5 16
  can0  3C6   [8]  80 00 09 12 C8 CA B5 16
  can0  3C4   [8]  80 00 00 95 C8 CA B5 16
  can0  3C8   [8]  80 00 00 00 C8 CA B5 16
  can0  3C2   [8]  80 00 91 CA C8 CA B5 16
  can0  3C3   [8]  80 00 0A A9 C8 CA B5 16
  can0  3C9   [8]  80 00 00 01 C8 CA B5 16
  can0  3C5   [8]  7F FF FC F9 C8 CA B5 16
  can0  3C7   [8]  80 00 0B DF C8 CA B5 16
  can0  3C6   [8]  80 00 09 68 C8 CA B5 16
  can0  3C4   [8]  80 00 00 8B C8 CA B5 16
  can0  3C8   [8]  80 00 00 01 C8 CA B5 16
  can0  3C2   [8]  80 00 81 D2 C8 CA B5 16
  can0  3C3   [8]  80 00 0B 6B C8 CA B5 16
  can0  3C9   [8]  7F FF FF FF C8 CA B5 16
  can0  3C5   [8]  7F FF FD 37 C8 CA B5 16
  can0  3C7   [8]  80 00 0A 04 C8 CA B5 16
  can0  3C6   [8]  80 00 0A AC C8 CA B5 16
  can0  3C4   [8]  80 00 00 98 C8 CA B5 16
  can0  3C8   [8]  7F FF FF FF C8 CA B5 16
  can0  3C2   [8]  80 00 7B 87 C8 CA B5 16
  can0  3C3   [8]  80 00 09 F8 C8 CA B5 16
  can0  3C9   [8]  80 00 00 00 C8 CA B5 16
  can0  3C5   [8]  7F FF FD 17 C8 CA B5 16
  can0  3C7   [8]  80 00 08 C5 C8 CA B5 16
  can0  3C6   [8]  80 00 09 5E C8 CA B5 16
  can0  3C4   [8]  80 00 00 8E C8 CA B5 16
  can0  3C8   [8]  7F FF FF FF C8 CA B5 16
  can0  3C2   [8]  80 00 79 A6 C8 CA B5 16
  can0  3C3   [8]  80 00 0A 2B C8 CA B5 16
  can0  3C9   [8]  80 00 00 00 C8 CA B5 16
  can0  3C5   [8]  7F FF FD 1E C8 CA B5 16
  can0  3C7   [8]  80 00 08 89 C8 CA B5 16
  can0  3C6   [8]  80 00 09 2F C8 CA B5 16
  can0  3C4   [8]  80 00 00 8C C8 CA B5 16
  can0  3C8   [8]  7F FF FF FF C8 CA B5 16
  can0  3C2   [8]  80 00 88 75 C8 CA B5 16
  can0  3C3   [8]  80 00 0A AD C8 CA B5 16
  can0  3C9   [8]  80 00 00 00 C8 CA B5 16
  can0  3C5   [8]  7F FF FC F5 C8 CA B5 16
  can0  3C7   [8]  80 00 08 A2 C8 CA B5 16
  can0  3C6   [8]  80 00 0A 4A C8 CA B5 16
  can0  3C4   [8]  80 00 00 95 C8 CA B5 16
  can0  3C8   [8]  7F FF FF FE C8 CA B5 16
  can0  3C2   [8]  80 00 8F E4 C8 CA B5 16
  can0  3C3   [8]  80 00 0B 2E C8 CA B5 16
  can0  3C9   [8]  80 00 00 00 C8 CA B5 16
  can0  3C5   [8]  7F FF FD 10 C8 CA B5 16
  can0  3C7   [8]  80 00 09 48 C8 CA B5 16
  can0  3C6   [8]  80 00 09 E7 C8 CA B5 16
  can0  3C4   [8]  80 00 00 92 C8 CA B5 16
  can0  3C8   [8]  80 00 00 00 C8 CA B5 16
  can0  000   [4]  0C E4 48 D8
  can0  3C2   [8]  80 00 81 51 C8 CA B5 16
  can0  3C3   [8]  80 00 09 CD C8 CA B5 16
  can0  3C9   [8]  80 00 00 00 C8 CA B5 16
  can0  3C5   [8]  7F FF FD 0F C8 CA B5 16
  can0  3C7   [8]  80 00 09 A5 C8 CA B5 16
  can0  3C6   [8]  80 00 09 20 C8 CA B5 16
  can0  3C4   [8]  80 00 00 88 C8 CA B5 16
  can0  3C8   [8]  80 00 00 01 C8 CA B5 16
  can0  3C2   [8]  80 00 7C 55 C8 CA B5 16
  can0  3C3   [8]  80 00 0B B8 C8 CA B5 16
  can0  3C9   [8]  7F FF FF FE C8 CA B5 16
  can0  3C5   [8]  7F FF FD 05 C8 CA B5 16
  can0  3C7   [8]  80 00 09 A7 C8 CA B5 16
  can0  3C6   [8]  80 00 08 D7 C8 CA B5 16
  can0  3C4   [8]  80 00 00 8D C8 CA B5 16
  can0  3C8   [8]  80 00 00 00 C8 CA B5 16
  can0  3C2   [8]  80 00 7D 20 C8 CA B5 16
  can0  3C3   [8]  80 00 0A D4 C8 CA B5 16
  can0  3C9   [8]  80 00 00 02 C8 CA B5 16
  can0  3C5   [8]  7F FF FD 07 C8 CA B5 16
  can0  3C7   [8]  80 00 0A D6 C8 CA B5 16
  can0  3C6   [8]  80 00 0A 05 C8 CA B5 16
  can0  3C4   [8]  80 00 00 8A C8 CA B5 16
  can0  3C8   [8]  80 00 00 00 C8 CA B5 16
  can0  3C2   [8]  80 00 87 9D C8 CA B5 16
  can0  3C3   [8]  80 00 09 B1 C8 CA B5 16
  can0  3C9   [8]  80 00 00 00 C8 CA B5 16
  can0  3C5   [8]  7F FF FD 20 C8 CA B5 16
  can0  3C7   [8]  80 00 09 AC C8 CA B5 16
  can0  3C6   [8]  80 00 08 C7 C8 CA B5 16
  can0  3C4   [8]  80 00 00 8A C8 CA B5 16
  can0  3C8   [8]  80 00 00 00 C8 CA B5 16
  can0  3C2   [8]  80 00 91 55 C8 CA B5 16
  can0  3C3   [8]  80 00 0B 43 C8 CA B5 16
  can0  3C9   [8]  80 00 00 02 C8 CA B5 16
  can0  3C5   [8]  7F FF FD 2C C8 CA B5 16
  can0  3C7   [8]  80 00 0B AC C8 CA B5 16
  can0  3C6   [8]  80 00 09 52 C8 CA B5 16
  can0  3C4   [8]  80 00 00 94 C8 CA B5 16
  can0  3C8   [8]  80 00 00 01 C8 CA B5 16
  can0  3C2   [8]  80 00 83 D6 C8 CA B5 16
  can0  3C3   [8]  80 00 0A 6D C8 CA B5 16
  can0  3C9   [8]  80 00 00 00 C8 CA B5 16
  can0  3C5   [8]  7F FF FC E7 C8 CA B5 16
  can0  3C7   [8]  80 00 0A 4A C8 CA B5 16
  can0  3C6   [8]  80 00 0A D9 C8 CA B5 16
  can0  3C4   [8]  80 00 00 8D C8 CA B5 16
  can0  3C8   [8]  7F FF FF FF C8 CA B5 16
  can0  3C2   [8]  80 00 7C 35 C8 CA B5 16
  can0  3C3   [8]  80 00 0A EF C8 CA B5 16
  can0  3C9   [8]  7F FF FF FE C8 CA B5 16
  can0  3C5   [8]  7F FF FC F9 C8 CA B5 16
  can0  3C7   [8]  80 00 08 97 C8 CA B5 16
  can0  3C6   [8]  80 00 09 49 C8 CA B5 16
  can0  3C4   [8]  80 00 00 84 C8 CA B5 16
  can0  3C8   [8]  80 00 00 01 C8 CA B5 16
  can0  3C2   [8]  80 00 78 EB C8 CA B5 16
  can0  3C3   [8]  80 00 09 51 C8 CA B5 16
  can0  3C9   [8]  80 00 00 03 C8 CA B5 16
  can0  3C5   [8]  7F FF FD 24 C8 CA B5 16
  can0  3C7   [8]  80 00 08 96 C8 CA B5 16
  can0  3C6   [8]  80 00 09 61 C8 CA B5 16
  can0  3C4   [8]  80 00 00 8A C8 CA B5 16
  can0  3C8   [8]  80 00 00 00 C8 CA B5 16
  can0  3C2   [8]  80 00 89 BE C8 CA B5 16
  can0  3C3   [8]  80 00 0B 30 C8 CA B5 16
  can0  3C9   [8]  80 00 00 01 C8 CA B5 16
  can0  3C5   [8]  7F FF FD 12 C8 CA B5 16
  can0  3C7   [8]  80 00 08 C7 C8 CA B5 16
  can0  3C6   [8]  80 00 09 FC C8 CA B5 16
  can0  3C4   [8]  80 00 00 8E C8 CA B5 16
  can0  3C8   [8]  80 00 00 01 C8 CA B5 16
  can0  3C2   [8]  80 00 8E 06 C8 CA B5 16
  can0  3C3   [8]  80 00 0A 65 C8 CA B5 16
  can0  3C9   [8]  7F FF FF FF C8 CA B5 16
  can0  3C5   [8]  7F FF FD 03 C8 CA B5 16
  can0  3C7   [8]  80 00 09 14 C8 CA B5 16
  can0  3C6   [8]  80 00 0A 41 C8 CA B5 16
  can0  3C4   [8]  80 00 00 88 C8 CA B5 16
  can0  3C8   [8]  80 00 00 00 C8 CA B5 16
  can0  000   [4]  0C E4 48 F3
  can0  3C2   [8]  80 00 7D 4A C8 CA B5 16
  can0  3C3   [8]  80 00 0A 2B C8 CA B5 16
  can0  3C9   [8]  7F FF FF FD C8 CA B5 16
  can0  3C5   [8]  7F FF FD 2E C8 CA B5 16
  can0  3C7   [8]  80 00 09 6C C8 CA B5 16
  can0  3C6   [8]  80 00 09 2D C8 CA B5 16
  can0  3C4   [8]  80 00 00 8E C8 CA B5 16
  can0  3C8   [8]  80 00 00 01 C8 CA B5 16
  can0  3C2   [8]  80 00 7C 80 C8 CA B5 16
  can0  3C3   [8]  80 00 0C 0A C8 CA B5 16
  can0  3C9   [8]  80 00 00 00 C8 CA B5 16
  can0  3C5   [8]  7F FF FD 14 C8 CA B5 16
  can0  3C7   [8]  80 00 09 B1 C8 CA B5 16
  can0  3C6   [8]  80 00 09 12 C8 CA B5 16
  can0  3C4   [8]  80 00 00 96 C8 CA B5 16
  can0  3C8   [8]  80 00 00 00 C8 CA B5 16
  can0  3C2   [8]  80 00 7C E5 C8 CA B5 16
  can0  3C3   [8]  80 00 0B 0C C8 CA B5 16
  can0  3C9   [8]  80 00 00 01 C8 CA B5 16
  can0  3C5   [8]  7F FF FD 02 C8 CA B5 16
  can0  3C7   [8]  80 00 0B 0B C8 CA B5 16
  can0  3C6   [8]  80 00 0A 21 C8 CA B5 16
  can0  3C4   [8]  80 00 00 84 C8 CA B5 16
  can0  3C8   [8]  7F FF FF FF C8 CA B5 16
  can0  3C2   [8]  80 00 89 6B C8 CA B5 16
  can0  3C3   [8]  80 00 0B 42 C8 CA B5 16
  can0  3C9   [8]  7F FF FF FC C8 CA B5 16
  can0  3C5   [8]  7F FF FD 24 C8 CA B5 16
  can0  3C7   [8]  80 00 09 B9 C8 CA B5 16
  can0  3C6   [8]  80 00 09 00 C8 CA B5 16
  can0  3C4   [8]  80 00 00 91 C8 CA B5 16
  can0  3C8   [8]  80 00 00 01 C8 CA B5 16
  can0  3C2   [8]  80 00 92 4A C8 CA B5 16
  can0  3C3   [8]  80 00 0B 74 C8 CA B5 16
  can0  3C9   [8]  80 00 00 00 C8 CA B5 16
  can0  3C5   [8]  7F FF FD 00 C8 CA B5 16
  can0  3C7   [8]  80 00 0B BB C8 CA B5 16
  can0  3C6   [8]  80 00 09 9B C8 CA B5 16
  can0  3C4   [8]  80 00 00 86 C8 CA B5 16
  can0  3C8   [8]  7F FF FF FE C8 CA B5 16
  can0  3C2   [8]  80 00 85 72 C8 CA B5 16
  can0  3C3   [8]  80 00 0B 60 C8 CA B5 16
  can0  3C9   [8]  7F FF FF FF C8 CA B5 16
  can0  3C5   [8]  7F FF FD 16 C8 CA B5 16
  can0  3C7   [8]  80 00 0A 8B C8 CA B5 16
  can0  3C6   [8]  80 00 0A 56 C8 CA B5 16
  can0  3C4   [8]  80 00 00 99 C8 CA B5 16
  can0  3C8   [8]  7F FF FF FE C8 CA B5 16
  can0  3C2   [8]  80 00 7C 04 C8 CA B5 16
  can0  3C3   [8]  80 00 0A 6D C8 CA B5 16
  can0  3C9   [8]  80 00 00 00 C8 CA B5 16
  can0  3C5   [8]  7F FF FD 10 C8 CA B5 16
  can0  3C7   [8]  80 00 08 AB C8 CA B5 16
  can0  3C6   [8]  80 00 09 54 C8 CA B5 16
  can0  3C4   [8]  80 00 00 8D C8 CA B5 16
  can0  3C8   [8]  80 00 00 00 C8 CA B5 16
  can0  3C2   [8]  80 00 7C 13 C8 CA B5 16
  can0  3C3   [8]  80 00 0B D7 C8 CA B5 16
  can0  3C9   [8]  80 00 00 03 C8 CA B5 16
  can0  3C5   [8]  7F FF FD 0D C8 CA B5 16
  can0  3C7   [8]  80 00 08 5D C8 CA B5 16
  can0  3C6   [8]  80 00 09 27 C8 CA B5 16
  can0  3C4   [8]  80 00 00 94 C8 CA B5 16
  can0  3C8   [8]  80 00 00 03 C8 CA B5 16
  can0  3C2   [8]  80 00 88 84 C8 CA B5 16
  can0  3C3   [8]  80 00 0A 26 C8 CA B5 16
  can0  3C9   [8]  80 00 00 00 C8 CA B5 16
  can0  3C5   [8]  7F FF FD 10 C8 CA B5 16
  can0  3C7   [8]  80 00 08 D4 C8 CA B5 16
  can0  3C6   [8]  80 00 0A 3B C8 CA B5 16
  can0  3C4   [8]  80 00 00 81 C8 CA B5 16
  can0  3C8   [8]  80 00 00 00 C8 CA B5 16
  can0  3C2   [8]  80 00 8F 75 C8 CA B5 16
  can0  3C3   [8]  80 00 0B 92 C8 CA B5 16
  can0  3C9   [8]  7F FF FF FF C8 CA B5 16
  can0  3C5   [8]  7F FF FD 11 C8 CA B5 16
  can0  3C7   [8]  80 00 09 07 C8 CA B5 16
  can0  3C6   [8]  80 00 0A 31 C8 CA B5 16
  can0  3C4   [8]  80 00 00 89 C8 CA B5 16
  can0  3C8   [8]  7F FF FF FF C8 CA B5 16
  can0  000   [4]  0C E3 48 FE
  can0  3C2   [8]  80 00 81 02 C8 CA B5 16
  can0  3C3   [8]  80 00 09 B8 C8 CA B5 16
  can0  3C9   [8]  80 00 00 00 C8 CA B5 16
  can0  3C5   [8]  7F FF FD 2F C8 CA B5 16
  can0  3C7   [8]  80 00 09 50 C8 CA B5 16
  can0  3C6   [8]  80 00 09 06 C8 CA B5 16
  can0  3C4   [8]  80 00 00 97 C8 CA B5 16
  can0  3C8   [8]  80 00 00 02 C8 CA B5 16
  can0  3C2   [8]  80 00 7D 42 C8 CA B5 16
  can0  3C3   [8]  80 00 0B D8 C8 CA B5 16
  can0  3C9   [8]  7F FF FF FF C8 CA B5 16
  can0  3C5   [8]  7F FF FD 17 C8 CA B5 16
  can0  3C7   [8]  80 00 09 C6 C8 CA B5 16
  can0  3C6   [8]  80 00 08 C5 C8 CA B5 16
  can0  3C4   [8]  80 00 00 89 C8 CA B5 16
  can0  3C8   [8]  7F FF FF FF C8 CA B5 16
  can0  3C2   [8]  80 00 7B 90 C8 CA B5 16
  can0  3C3   [8]  80 00 0A 15 C8 CA B5 16
  can0  3C9   [8]  7F FF FF FD C8 CA B5 16
  can0  3C5   [8]  7F FF FD 05 C8 CA B5 16
  can0  3C7   [8]  80 00 0A E8 C8 CA B5 16
  can0  3C6   [8]  80 00 0A 4C C8 CA B5 16
  can0  3C4   [8]  80 00 00 8B C8 CA B5 16
  can0  3C8   [8]  80 00 00 01 C8 CA B5 16
  can0  3C2   [8]  80 00 88 DF C8 CA B5 16
  can0  3C3   [8]  80 00 0B 0A C8 CA B5 16
  can0  3C9   [8]  80 00 00 00 C8 CA B5 16
  can0  3C5   [8]  7F FF FD 33 C8 CA B5 16
  can0  3C7   [8]  80 00 09 79 C8 CA B5 16
  can0  3C6   [8]  80 00 09 09 C8 CA B5 16
  can0  3C4   [8]  80 00 00 8F C8 CA B5 16
  can0  3C8   [8]  80 00 00 00 C8 CA B5 16
  can0  3C2   [8]  80 00 92 FF C8 CA B5 16
  can0  3C3   [8]  80 00 0B 84 C8 CA B5 16
  can0  3C9   [8]  80 00 00 02 C8 CA B5 16
  can0  3C5   [8]  7F FF FD 18 C8 CA B5 16
  can0  3C7   [8]  80 00 0B 70 C8 CA B5 16
  can0  3C6   [8]  80 00 09 4A C8 CA B5 16
  can0  3C4   [8]  80 00 00 87 C8 CA B5 16
  can0  3C8   [8]  80 00 00 00 C8 CA B5 16
  can0  3C2   [8]  80 00 81 91 C8 CA B5 16
  can0  3C3   [8]  80 00 0A F8 C8 CA B5 16
  can0  3C9   [8]  80 00 00 00 C8 CA B5 16
  can0  3C5   [8]  7F FF FD 17 C8 CA B5 16
  can0  3C7   [8]  80 00 0A 65 C8 CA B5 16
  can0  3C6   [8]  80 00 0A 46 C8 CA B5 16
  can0  3C4   [8]  80 00 00 8D C8 CA B5 16
  can0  3C8   [8]  80 00 00 03 C8 CA B5 16
  can0  3C2   [8]  80 00 7B FC C8 CA B5 16
  can0  3C3   [8]  80 00 0A 8F C8 CA B5 16
  can0  3C9   [8]  80 00 00 01 C8 CA B5 16
  can0  3C5   [8]  7F FF FD 22 C8 CA B5 16
  can0  3C7   [8]  80 00 08 90 C8 CA B5 16
  can0  3C6   [8]  80 00 09 86 C8 CA B5 16
  can0  3C4   [8]  80 00 00 9A C8 CA B5 16
  can0  3C8   [8]  80 00 00 00 C8 CA B5 16
  can0  3C2   [8]  80 00 7B F3 C8 CA B5 16
  can0  3C3   [8]  80 00 0A F0 C8 CA B5 16
  can0  3C9   [8]  80 00 00 00 C8 CA B5 16
  can0  3C5   [8]  7F FF FD 1E C8 CA B5 16
  can0  3C7   [8]  80 00 08 62 C8 CA B5 16
  can0  3C6   [8]  80 00 09 3F C8 CA B5 16
  can0  3C4   [8]  80 00 00 90 C8 CA B5 16
  can0  3C8   [8]  80 00 00 00 C8 CA B5 16
  can0  3C2   [8]  80 00 8A A3 C8 CA B5 16
  can0  3C3   [8]  80 00 0B E4 C8 CA B5 16
  can0  3C9   [8]  80 00 00 00 C8 CA B5 16
  can0  3C5   [8]  7F FF FD 2E C8 CA B5 16
  can0  3C7   [8]  80 00 08 89 C8 CA B5 16
  can0  3C6   [8]  80 00 09 FF C8 CA B5 16
  can0  3C4   [8]  80 00 00 96 C8 CA B5 16
  can0  3C8   [8]  80 00 00 01 C8 CA B5 16
  can0  3C2   [8]  80 00 8E B2 C8 CA B5 16
  can0  3C3   [8]  80 00 09 8A C8 CA B5 16
  can0  3C9   [8]  7F FF FF FF C8 CA B5 16
  can0  3C5   [8]  7F FF FD 13 C8 CA B5 16
  can0  3C7   [8]  80 00 09 0F C8 CA B5 16
  can0  3C6   [8]  80 00 0A 0E C8 CA B5 16
  can0  3C4   [8]  80 00 00 A5 C8 CA B5 16
  can0  3C8   [8]  80 00 00 00 C8 CA B5 16
  can0  000   [4]  0C E3 48 FC
  can0  3C2   [8]  80 00 85 84 C8 CA B5 16
  can0  3C3   [8]  80 00 0C 28 C8 CA B5 16
  can0  3C9   [8]  80 00 00 02 C8 CA B5 16
  can0  3C5   [8]  7F FF FD 15 C8 CA B5 16
  can0  3C7   [8]  80 00 09 90 C8 CA B5 16
  can0  3C6   [8]  80 00 09 2F C8 CA B5 16
  can0  3C4   [8]  80 00 00 7C C8 CA B5 16
  can0  3C8   [8]  80 00 00 01 C8 CA B5 16
  can0  3C2   [8]  80 00 7C 3A C8 CA B5 16
  can0  3C3   [8]  80 00 0B 43 C8 CA B5 16
  can0  3C9   [8]  80 00 00 00 C8 CA B5 16
  can0  3C5   [8]  7F FF FD 08 C8 CA B5 16
  can0  3C7   [8]  80 00 09 BA C8 CA B5 16
  can0  3C6   [8]  80 00 09 08 C8 CA B5 16
  can0  3C4   [8]  80 00 00 91 C8 CA B5 16
  can0  3C8   [8]  80 00 00 00 C8 CA B5 16
  can0  3C2   [8]  80 00 7C DE C8 CA B5 16
  can0  3C3   [8]  80 00 0A F1 C8 CA B5 16
  can0  3C9   [8]  80 00 00 01 C8 CA B5 16
  can0  3C5   [8]  7F FF FD 02 C8 CA B5 16
  can0  3C7   [8]  80 00 0A CD C8 CA B5 16
  can0  3C6   [8]  80 00 0A 49 C8 CA B5 16
  can0  3C4   [8]  80 00 00 99 C8 CA B5 16
  can0  3C8   [8]  80 00 00 00 C8 CA B5 16
  can0  3C2   [8]  80 00 8A 18 C8 CA B5 16
  can0  3C3   [8]  80 00 0B 7E C8 CA B5 16
  can0  3C9   [8]  80 00 00 01 C8 CA B5 16
  can0  3C5   [8]  7F FF FD 01 C8 CA B5 16
  can0  3C7   [8]  80 00 09 98 C8 CA B5 16
  can0  3C6   [8]  80 00 09 06 C8 CA B5 16
  can0  3C4   [8]  80 00 00 8F C8 CA B5 16
  can0  3C8   [8]  80 00 00 01 C8 CA B5 16
  can0  3C2   [8]  80 00 92 6A C8 CA B5 16
  can0  3C3   [8]  80 00 0B 5D C8 CA B5 16
  can0  3C9   [8]  80 00 00 00 C8 CA B5 16
  can0  3C5   [8]  7F FF FC FD C8 CA B5 16
  can0  3C7   [8]  80 00 0B E6 C8 CA B5 16
  can0  3C6   [8]  80 00 09 45 C8 CA B5 16
  can0  3C4   [8]  80 00 00 93 C8 CA B5 16
  can0  3C8   [8]  80 00 00 01 C8 CA B5 16
  can0  3C2   [8]  80 00 84 FB C8 CA B5 16
  can0  3C3   [8]  80 00 0B 01 C8 CA B5 16
  can0  3C9   [8]  80 00 00 00 C8 CA B5 16
  can0  3C5   [8]  7F FF FC E8 C8 CA B5 16
  can0  3C7   [8]  80 00 0A 42 C8 CA B5 16
  can0  3C6   [8]  80 00 0A CC C8 CA B5 16
  can0  3C4   [8]  80 00 00 8A C8 CA B5 16
  can0  3C8   [8]  80 00 00 00 C8 CA B5 16
  can0  3C2   [8]  80 00 7C D2 C8 CA B5 16
  can0  3C3   [8]  80 00 0B 15 C8 CA B5 16
  can0  3C9   [8]  80 00 00 01 C8 CA B5 16
  can0  3C5   [8]  7F FF FD 0F C8 CA B5 16
  can0  3C7   [8]  80 00 08 C7 C8 CA B5 16
  can0  3C6   [8]  80 00 09 2A C8 CA B5 16
  can0  3C4   [8]  80 00 00 8C C8 CA B5 16
  can0  3C8   [8]  7F FF FF FE C8 CA B5 16
  can0  3C2   [8]  80 00 7C FC C8 CA B5 16
  can0  3C3   [8]  80 00 0B D4 C8 CA B5 16
  can0  3C9   [8]  80 00 00 00 C8 CA B5 16
  can0  3C5   [8]  7F FF FD 19 C8 CA B5 16
  can0  3C7   [8]  80 00 08 61 C8 CA B5 16
  can0  3C6   [8]  80 00 09 5B C8 CA B5 16
  can0  3C4   [8]  80 00 00 95 C8 CA B5 16
  can0  3C8   [8]  7F FF FF FF C8 CA B5 16
  can0  3C2   [8]  80 00 88 7C C8 CA B5 16
  can0  3C3   [8]  80 00 0A 39 C8 CA B5 16
  can0  3C9   [8]  80 00 00 00 C8 CA B5 16
  can0  3C5   [8]  7F FF FD 08 C8 CA B5 16
  can0  3C7   [8]  80 00 08 C0 C8 CA B5 16
  can0  3C6   [8]  80 00 09 E5 C8 CA B5 16
  can0  3C4   [8]  80 00 00 8A C8 CA B5 16
  can0  3C8   [8]  80 00 00 00 C8 CA B5 16
  can0  3C2   [8]  80 00 8D EA C8 CA B5 16
  can0  3C3   [8]  80 00 0A 7C C8 CA B5 16
  can0  3C9   [8]  7F FF FF FE C8 CA B5 16
  can0  3C5   [8]  7F FF FD 1C C8 CA B5 16
  can0  3C7   [8]  80 00 08 FD C8 CA B5 16
  can0  3C6   [8]  80 00 0A 0A C8 CA B5 16
  can0  3C4   [8]  80 00 00 96 C8 CA B5 16
  can0  3C8   [8]  80 00 00 02 C8 CA B5 16
  can0  000   [4]  0C E3 48 E9
  can0  3C2   [8]  80 00 82 2D C8 CA B5 16
  can0  3C3   [8]  80 00 0B AF C8 CA B5 16
  can0  3C9   [8]  7F FF FF FB C8 CA B5 16
  can0  3C5   [8]  7F FF FD 1A C8 CA B5 16
  can0  3C7   [8]  80 00 09 64 C8 CA B5 16
  can0  3C6   [8]  80 00 09 3F C8 CA B5 16
  can0  3C4   [8]  80 00 00 98 C8 CA B5 16
  can0  3C8   [8]  7F FF FF FF C8 CA B5 16
  can0  3C2   [8]  80 00 7B 0E C8 CA B5 16
  can0  3C3   [8]  80 00 0A B1 C8 CA B5 16
  can0  3C9   [8]  80 00 00 00 C8 CA B5 16
  can0  3C5   [8]  7F FF FD 17 C8 CA B5 16
  can0  3C7   [8]  80 00 09 B6 C8 CA B5 16
  can0  3C6   [8]  80 00 09 0E C8 CA B5 16
  can0  3C4   [8]  80 00 00 89 C8 CA B5 16
  can0  3C8   [8]  80 00 00 01 C8 CA B5 16
  can0  3C2   [8]  80 00 7D CA C8 CA B5 16
  can0  3C3   [8]  80 00 0A E4 C8 CA B5 16
  can0  3C9   [8]  80 00 00 00 C8 CA B5 16
  can0  3C5   [8]  7F FF FD 10 C8 CA B5 16
  can0  3C7   [8]  80 00 0A 82 C8 CA B5 16
  can0  3C6   [8]  80 00 0A 3E C8 CA B5 16
  can0  3C4   [8]  80 00 00 94 C8 CA B5 16
  can0  3C8   [8]  7F FF FF FE C8 CA B5 16
  can0  3C2   [8]  80 00 8A B9 C8 CA B5 16
  can0  3C3   [8]  80 00 0B 53 C8 CA B5 16
  can0  3C9   [8]  7F FF FF FF C8 CA B5 16
  can0  3C5   [8]  7F FF FD 19 C8 CA B5 16
  can0  3C7   [8]  80 00 09 7D C8 CA B5 16
  can0  3C6   [8]  80 00 09 1D C8 CA B5 16
  can0  3C4   [8]  80 00 00 96 C8 CA B5 16
  can0  3C8   [8]  80 00 00 01 C8 CA B5 16
  can0  3C2   [8]  80 00 91 C6 C8 CA B5 16
  can0  3C3   [8]  80 00 0B 0C C8 CA B5 16
  can0  3C9   [8]  80 00 00 01 C8 CA B5 16
  can0  3C5   [8]  7F FF FD 01 C8 CA B5 16
  can0  3C7   [8]  80 00 0B BD C8 CA B5 16
  can0  3C6   [8]  80 00 09 7F C8 CA B5 16
  can0  3C4   [8]  80 00 00 92 C8 CA B5 16
  can0  3C8   [8]  80 00 00 00 C8 CA B5 16
  can0  3C2   [8]  80 00 85 44 C8 CA B5 16
  can0  3C3   [8]  80 00 0A A0 C8 CA B5 16
  can0  3C9   [8]  80 00 00 00 C8 CA B5 16
  can0  3C5   [8]  7F FF FD 0E C8 CA B5 16
  can0  3C7   [8]  80 00 0A 69 C8 CA B5 16
  can0  3C6   [8]  80 00 0A BC C8 CA B5 16
  can0  3C4   [8]  80 00 00 97 C8 CA B5 16
  can0  3C8   [8]  80 00 00 01 C8 CA B5 16
  can0  3C2   [8]  80 00 7F 55 C8 CA B5 16
  can0  3C3   [8]  80 00 0B D3 C8 CA B5 16
  can0  3C9   [8]  80 00 00 00 C8 CA B5 16
  can0  3C5   [8]  7F FF FD 2A C8 CA B5 16
  can0  3C7   [8]  80 00 08 97 C8 CA B5 16
  can0  3C6   [8]  80 00 09 7A C8 CA B5 16
  can0  3C4   [8]  80 00 00 91 C8 CA B5 16
  can0  3C8   [8]  80 00 00 01 C8 CA B5 16
  can0  3C2   [8]  80 00 7B 59 C8 CA B5 16
  can0  3C3   [8]  80 00 0B 11 C8 CA B5 16
  can0  3C9   [8]  7F FF FF FD C8 CA B5 16
  can0  3C5   [8]  7F FF FD 0C C8 CA B5 16
  can0  3C7   [8]  80 00 08 76 C8 CA B5 16
  can0  3C6   [8]  80 00 09 38 C8 CA B5 16
  can0  3C4   [8]  80 00 00 8A C8 CA B5 16
  can0  3C8   [8]  80 00 00 00 C8 CA B5 16
  can0  3C2   [8]  80 00 8B FF C8 CA B5 16
  can0  3C3   [8]  80 00 0B A7 C8 CA B5 16
  can0  3C9   [8]  80 00 00 00 C8 CA B5 16
  can0  3C5   [8]  7F FF FD 26 C8 CA B5 16
  can0  3C7   [8]  80 00 08 E0 C8 CA B5 16
  can0  3C6   [8]  80 00 0A 0B C8 CA B5 16
  can0  3C4   [8]  80 00 00 8F C8 CA B5 16
  can0  3C8   [8]  7F FF FF FF C8 CA B5 16
  can0  3C2   [8]  80 00 90 FA C8 CA B5 16
  can0  3C3   [8]  80 00 0B E3 C8 CA B5 16
  can0  3C9   [8]  80 00 00 02 C8 CA B5 16
  can0  3C5   [8]  7F FF FD 33 C8 CA B5 16
  can0  3C7   [8]  80 00 09 1A C8 CA B5 16
  can0  3C6   [8]  80 00 09 F0 C8 CA B5 16
  can0  3C4   [8]  80 00 00 86 C8 CA B5 16
  can0  3C8   [8]  80 00 00 01 C8 CA B5 16
  can0  000   [4]  0C E3 48 D6
  can0  3C2   [8]  80 00 86 94 C8 CA B5 16
  can0  3C3   [8]  80 00 0B 89 C8 CA B5 16
  can0  3C9   [8]  80 00 00 03 C8 CA B5 16
  can0  3C5   [8]  7F FF FC FA C8 CA B5 16
  can0  3C7   [8]  80 00 09 6A C8 CA B5 16
  can0  3C6   [8]  80 00 09 44 C8 CA B5 16
  can0  3C4   [8]  80 00 00 9A C8 CA B5 16
  can0  3C8   [8]  80 00 00 01 C8 CA B5 16
  can0  3C2   [8]  80 00 7B 17 C8 CA B5 16
  can0  3C3   [8]  80 00 0A 83 C8 CA B5 16
  can0  3C9   [8]  7F FF FF FF C8 CA B5 16
  can0  3C5   [8]  7F FF FD 3C C8 CA B5 16
  can0  3C7   [8]  80 00 09 C5 C8 CA B5 16
  can0  3C6   [8]  80 00 08 EC C8 CA B5 16
  can0  3C4   [8]  80 00 00 8D C8 CA B5 16
  can0  3C8   [8]  80 00 00 02 C8 CA B5 16
  can0  3C2   [8]  80 00 7B E0 C8 CA B5 16
  can0  3C3   [8]  80 00 0A B8 C8 CA B5 16
  can0  3C9   [8]  7F FF FF FF C8 CA B5 16
  can0  3C5   [8]  7F FF FC F2 C8 CA B5 16
  can0  3C7   [8]  80 00 0A BB C8 CA B5 16
  can0  3C6   [8]  80 00 09 C1 C8 CA B5 16
  can0  3C4   [8]  80 00 00 92 C8 CA B5 16
  can0  3C8   [8]  80 00 00 00 C8 CA B5 16
  can0  3C2   [8]  80 00 8B EF C8 CA B5 16
  can0  3C3   [8]  80 00 0C 69 C8 CA B5 16
  can0  3C9   [8]  80 00 00 00 C8 CA B5 16
  can0  3C5   [8]  7F FF FD 09 C8 CA B5 16
  can0  3C7   [8]  80 00 09 AE C8 CA B5 16
  can0  3C6   [8]  80 00 09 03 C8 CA B5 16
  can0  3C4   [8]  80 00 00 91 C8 CA B5 16
  can0  3C8   [8]  80 00 00 00 C8 CA B5 16
  can0  3C2   [8]  80 00 91 7B C8 CA B5 16
  can0  3C3   [8]  80 00 0A CB C8 CA B5 16
  can0  3C9   [8]  80 00 00 00 C8 CA B5 16
  can0  3C5   [8]  7F FF FD 0B C8 CA B5 16
  can0  3C7   [8]  80 00 0B C7 C8 CA B5 16
  can0  3C6   [8]  80 00 09 3C C8 CA B5 16
  can0  3C4   [8]  80 00 00 91 C8 CA B5 16
  can0  3C8   [8]  80 00 00 02 C8 CA B5 16
  can0  3C2   [8]  80 00 83 8E C8 CA B5 16
  can0  3C3   [8]  80 00 0B 25 C8 CA B5 16
  can0  3C9   [8]  80 00 00 00 C8 CA B5 16
  can0  3C5   [8]  7F FF FD 1B C8 CA B5 16
  can0  3C7   [8]  80 00 0A 5A C8 CA B5 16
  can0  3C6   [8]  80 00 0A AC C8 CA B5 16
  can0  3C4   [8]  80 00 00 8D C8 CA B5 16
  can0  3C8   [8]  80 00 00 02 C8 CA B5 16
  can0  3C2   [8]  80 00 7D 75 C8 CA B5 16
  can0  3C3   [8]  80 00 0C 34 C8 CA B5 16
  can0  3C9   [8]  7F FF FF FF C8 CA B5 16
  can0  3C5   [8]  7F FF FD 1F C8 CA B5 16
  can0  3C7   [8]  80 00 08 A8 C8 CA B5 16
  can0  3C6   [8]  80 00 09 69 C8 CA B5 16
  can0  3C4   [8]  80 00 00 94 C8 CA B5 16
  can0  3C8   [8]  80 00 00 00 C8 CA B5 16
  can0  3C2   [8]  80 00 7B 92 C8 CA B5 16
  can0  3C3   [8]  80 00 0A A9 C8 CA B5 16
  can0  3C9   [8]  80 00 00 01 C8 CA B5 16
  can0  3C5   [8]  7F FF FD 0F C8 CA B5 16
  can0  3C7   [8]  80 00 08 86 C8 CA B5 16
  can0  3C6   [8]  80 00 09 34 C8 CA B5 16
  can0  3C4   [8]  80 00 00 83 C8 CA B5 16
  can0  3C8   [8]  80 00 00 01 C8 CA B5 16
  can0  3C2   [8]  80 00 89 A9 C8 CA B5 16
  can0  3C3   [8]  80 00 0B 88 C8 CA B5 16
  can0  3C9   [8]  7F FF FF FD C8 CA B5 16
  can0  3C5   [8]  7F FF FD 24 C8 CA B5 16
  can0  3C7   [8]  80 00 08 AF C8 CA B5 16
  can0  3C6   [8]  80 00 0A 39 C8 CA B5 16
  can0  3C4   [8]  80 00 00 7F C8 CA B5 16
  can0  3C8   [8]  80 00 00 00 C8 CA B5 16
  can0  3C2   [8]  80 00 91 8E C8 CA B5 16
  can0  3C3   [8]  80 00 0C 12 C8 CA B5 16
  can0  3C9   [8]  80 00 00 01 C8 CA B5 16
  can0  3C5   [8]  7F FF FD 19 C8 CA B5 16
  can0  3C7   [8]  80 00 09 0A C8 CA B5 16
  can0  3C6   [8]  80 00 0A 01 C8 CA B5 16
  can0  3C4   [8]  80 00 00 8F C8 CA B5 16
  can0  3C8   [8]  80 00 00 00 C8 CA B5 16
  can0  000   [4]  0C E5 48 F1
  can0  3C2   [8]  80 00 83 C7 C8 CA B5 16
  can0  3C3   [8]  80 00 0A 97 C8 CA B5 16
  can0  3C9   [8]  7F FF FF FD C8 CA B5 16
  can0  3C5   [8]  7F FF FD 09 C8 CA B5 16
  can0  3C7   [8]  80 00 09 73 C8 CA B5 16
  can0  3C6   [8]  80 00 09 11 C8 CA B5 16
  can0  3C4   [8]  80 00 00 98 C8 CA B5 16
  can0  3C8   [8]  7F FF FF FE C8 CA B5 16
  can0  3C2   [8]  80 00 7B 4D C8 CA B5 16
  can0  3C3   [8]  80 00 0B 32 C8 CA B5 16
  can0  3C9   [8]  80 00 00 02 C8 CA B5 16
  can0  3C5   [8]  7F FF FD 1F C8 CA B5 16
  can0  3C7   [8]  80 00 09 C6 C8 CA B5 16
  can0  3C6   [8]  80 00 09 11 C8 CA B5 16
  can0  3C4   [8]  80 00 00 91 C8 CA B5 16
  can0  3C8   [8]  7F FF FF FF C8 CA B5 16
  can0  3C2   [8]  80 00 7E F9 C8 CA B5 16
  can0  3C3   [8]  80 00 0B 8A C8 CA B5 16
  can0  3C9   [8]  80 00 00 00 C8 CA B5 16
  can0  3C5   [8]  7F FF FD 10 C8 CA B5 16
  can0  3C7   [8]  80 00 0A C9 C8 CA B5 16
  can0  3C6   [8]  80 00 0A 0B C8 CA B5 16
  can0  3C4   [8]  80 00 00 8E C8 CA B5 16
  can0  3C8   [8]  80 00 00 00 C8 CA B5 16
  can0  3C2   [8]  80 00 8A 23 C8 CA B5 16
  can0  3C3   [8]  80 00 0B 5B C8 CA B5 16
  can0  3C9   [8]  80 00 00 00 C8 CA B5 16
  can0  3C5   [8]  7F FF FD 00 C8 CA B5 16
  can0  3C7   [8]  80 00 09 89 C8 CA B5 16
  can0  3C6   [8]  80 00 08 BD C8 CA B5 16
  can0  3C4   [8]  80 00 00 A5 C8 CA B5 16
  can0  3C8   [8]  80 00 00 02 C8 CA B5 16
  can0  3C2   [8]  80 00 92 46 C8 CA B5 16
  can0  3C3   [8]  80 00 0B D2 C8 CA B5 16
  can0  3C9   [8]  80 00 00 00 C8 CA B5 16
  can0  3C5   [8]  7F FF FD 13 C8 CA B5 16
  can0  3C7   [8]  80 00 0B 37 C8 CA B5 16
  can0  3C6   [8]  80 00 09 6A C8 CA B5 16
  can0  3C4   [8]  80 00 00 9B C8 CA B5 16
  can0  3C8   [8]  80 00 00 00 C8 CA B5 16
  can0  3C2   [8]  80 00 86 57 C8 CA B5 16
  can0  3C3   [8]  80 00 0B 5E C8 CA B5 16
  can0  3C9   [8]  80 00 00 00 C8 CA B5 16
  can0  3C5   [8]  7F FF FD 1C C8 CA B5 16
  can0  3C7   [8]  80 00 0A 8F C8 CA B5 16
  can0  3C6   [8]  80 00 0A 72 C8 CA B5 16
  can0  3C4   [8]  80 00 00 82 C8 CA B5 16
  can0  3C8   [8]  80 00 00 00 C8 CA B5 16
  can0  3C2   [8]  80 00 7E 11 C8 CA B5 16
  can0  3C3   [8]  80 00 0B 99 C8 CA B5 16
  can0  3C9   [8]  80 00 00 02 C8 CA B5 16
  can0  3C5   [8]  7F FF FD 03 C8 CA B5 16
  can0  3C7   [8]  80 00 08 B9 C8 CA B5 16
  can0  3C6   [8]  80 00 09 94 C8 CA B5 16
  can0  3C4   [8]  80 00 00 96 C8 CA B5 16
  can0  3C8   [8]  80 00 00 01 C8 CA B5 16
  can0  3C2   [8]  80 00 7C 1F C8 CA B5 16
  can0  3C3   [8]  80 00 0B 4F C8 CA B5 16
  can0  3C9   [8]  80 00 00 00 C8 CA B5 16
  can0  3C5   [8]  7F FF FC EC C8 CA B5 16
  can0  3C7   [8]  80 00 08 53 C8 CA B5 16
  can0  3C6   [8]  80 00 09 43 C8 CA B5 16
  can0  3C4   [8]  80 00 00 94 C8 CA B5 16
  can0  3C8   [8]  80 00 00 02 C8 CA B5 16
  can0  3C2   [8]  80 00 88 34 C8 CA B5 16
  can0  3C3   [8]  80 00 0A 42 C8 CA B5 16
  can0  3C9   [8]  7F FF FF FF C8 CA B5 16
  can0  3C5   [8]  7F FF FD 1A C8 CA B5 16
  can0  3C7   [8]  80 00 08 8E C8 CA B5 16
  can0  3C6   [8]  80 00 0A 45 C8 CA B5 16
  can0  3C4   [8]  80 00 00 9E C8 CA B5 16
  can0  3C8   [8]  80 00 00 00 C8 CA B5 16
  can0  3C2   [8]  80 00 91 8A C8 CA B5 16
  can0  3C3   [8]  80 00 0B 82 C8 CA B5 16
  can0  3C9   [8]  80 00 00 01 C8 CA B5 16
  can0  3C5   [8]  7F FF FD 01 C8 CA B5 16
  can0  3C7   [8]  80 00 09 07 C8 CA B5 16
  can0  3C6   [8]  80 00 0A 34 C8 CA B5 16
  can0  3C4   [8]  80 00 00 95 C8 CA B5 16
  can0  3C8   [8]  7F FF FF FF C8 CA B5 16
  can0  000   [4]  0C E4 48 EF
  can0  3C2   [8]  80 00 7E F4 C8 CA B5 16
  can0  3C3   [8]  80 00 09 DE C8 CA B5 16
  can0  3C9   [8]  80 00 00 00 C8 CA B5 16
  can0  3C5   [8]  7F FF FD 16 C8 CA B5 16
  can0  3C7   [8]  80 00 09 83 C8 CA B5 16
  can0  3C6   [8]  80 00 09 0A C8 CA B5 16
  can0  3C4   [8]  80 00 00 8F C8 CA B5 16
  can0  3C8   [8]  80 00 00 00 C8 CA B5 16
  can0  3C2   [8]  80 00 7A AD C8 CA B5 16
  can0  3C3   [8]  80 00 0A 4F C8 CA B5 16
  can0  3C9   [8]  80 00 00 00 C8 CA B5 16
  can0  3C5   [8]  7F FF FD 0F C8 CA B5 16
  can0  3C7   [8]  80 00 09 EC C8 CA B5 16
  can0  3C6   [8]  80 00 08 CF C8 CA B5 16
  can0  3C4   [8]  80 00 00 90 C8 CA B5 16
  can0  3C8   [8]  7F FF FF FF C8 CA B5 16
  can0  3C2   [8]  80 00 7F 7A C8 CA B5 16
  can0  3C3   [8]  80 00 0C A5 C8 CA B5 16
  can0  3C9   [8]  7F FF FF FF C8 CA B5 16
  can0  3C5   [8]  7F FF FD 10 C8 CA B5 16
  can0  3C7   [8]  80 00 0A D1 C8 CA B5 16
  can0  3C6   [8]  80 00 0A 3F C8 CA B5 16
  can0  3C4   [8]  80 00 00 8E C8 CA B5 16
  can0  3C8   [8]  80 00 00 00 C8 CA B5 16
  can0  3C2   [8]  80 00 89 AE C8 CA B5 16
  can0  3C3   [8]  80 00 0A 9A C8 CA B5 16
  can0  3C9   [8]  80 00 00 00 C8 CA B5 16
  can0  3C5   [8]  7F FF FD 09 C8 CA B5 16
  can0  3C7   [8]  80 00 09 C6 C8 CA B5 16
  can0  3C6   [8]  80 00 09 38 C8 CA B5 16
  can0  3C4   [8]  80 00 00 8F C8 CA B5 16
  can0  3C8   [8]  80 00 00 00 C8 CA B5 16
  can0  3C2   [8]  80 00 92 3E C8 CA B5 16
  can0  3C3   [8]  80 00 0A A9 C8 CA B5 16
  can0  3C9   [8]  80 00 00 04 C8 CA B5 16
  can0  3C5   [8]  7F FF FD 0E C8 CA B5 16
  can0  3C7   [8]  80 00 0B 52 C8 CA B5 16
  can0  3C6   [8]  80 00 09 50 C8 CA B5 16
  can0  3C4   [8]  80 00 00 93 C8 CA B5 16
  can0  3C8   [8]  80 00 00 00 C8 CA B5 16
  can0  3C2   [8]  80 00 86 7E C8 CA B5 16
  can0  3C3   [8]  80 00 0C 2C C8 CA B5 16
  can0  3C9   [8]  80 00 00 00 C8 CA B5 16
  can0  3C5   [8]  7F FF FD 05 C8 CA B5 16
  can0  3C7   [8]  80 00 0A 5D C8 CA B5 16
  can0  3C6   [8]  80 00 0A 64 C8 CA B5 16
  can0  3C4   [8]  80 00 00 93 C8 CA B5 16
  can0  3C8   [8]  80 00 00 01 C8 CA B5 16
  can0  3C2   [8]  80 00 7C B5 C8 CA B5 16
  can0  3C3   [8]  80 00 0A C8 C8 CA B5 16
  can0  3C9   [8]  80 00 00 00 C8 CA B5 16
  can0  3C5   [8]  7F FF FD 13 C8 CA B5 16
  can0  3C7   [8]  80 00 08 D7 C8 CA B5 16
  can0  3C6   [8]  80 00 09 9B C8 CA B5 16
  can0  3C4   [8]  80 00 00 8E C8 CA B5 16
  can0  3C8   [8]  80 00 00 02 C8 CA B5 16
  can0  3C2   [8]  80 00 7A 1C C8 CA B5 16
  can0  3C3   [8]  80 00 0A 13 C8 CA B5 16
  can0  3C9   [8]  80 00 00 02 C8 CA B5 16
  can0  3C5   [8]  7F FF FD 01 C8 CA B5 16
  can0  3C7   [8]  80 00 08 71 C8 CA B5 16
  can0  3C6   [8]  80 00 09 28 C8 CA B5 16
  can0  3C4   [8]  80 00 00 9D C8 CA B5 16
  can0  3C8   [8]  80 00 00 01 C8 CA B5 16
  can0  3C2   [8]  80 00 8A 3C C8 CA B5 16
  can0  3C3   [8]  80 00 0B DE C8 CA B5 16
  can0  3C9   [8]  80 00 00 00 C8 CA B5 16
  can0  3C5   [8]  7F FF FD 0D C8 CA B5 16
  can0  3C7   [8]  80 00 08 B0 C8 CA B5 16
  can0  3C6   [8]  80 00 0A 10 C8 CA B5 16
  can0  3C4   [8]  80 00 00 8B C8 CA B5 16
  can0  3C8   [8]  80 00 00 00 C8 CA B5 16
  can0  3C2   [8]  80 00 91 CC C8 CA B5 16
  can0  3C3   [8]  80 00 0C 8E C8 CA B5 16
  can0  3C9   [8]  80 00 00 01 C8 CA B5 16
  can0  3C5   [8]  7F FF FD 0E C8 CA B5 16
  can0  3C7   [8]  80 00 08 F4 C8 CA B5 16
  can0  3C6   [8]  80 00 0A 55 C8 CA B5 16
  can0  3C4   [8]  80 00 00 8C C8 CA B5 16
  can0  3C8   [8]  80 00 00 00 C8 CA B5 16
  can0  000   [4]  0C E3 48 F3
  can0  3C2   [8]  80 00 87 ED C8 CA B5 16
  can0  3C3   [8]  80 00 0C 20 C8 CA B5 16
  can0  3C9   [8]  80 00 00 00 C8 CA B5 16
  can0  3C5   [8]  7F FF FD 20 C8 CA B5 16
  can0  3C7   [8]  80 00 09 A2 C8 CA B5 16
  can0  3C6   [8]  80 00 09 35 C8 CA B5 16
  can0  3C4   [8]  80 00 00 8E C8 CA B5 16
  can0  3C8   [8]  80 00 00 00 C8 CA B5 16
  can0  3C2   [8]  80 00 7C 93 C8 CA B5 16
  can0  3C3   [8]  80 00 0C 20 C8 CA B5 16
  can0  3C9   [8]  80 00 00 00 C8 CA B5 16
  can0  3C5   [8]  7F FF FD 1A C8 CA B5 16
  can0  3C7   [8]  80 00 09 6E C8 CA B5 16
  can0  3C6   [8]  80 00 09 07 C8 CA B5 16
  can0  3C4   [8]  80 00 00 93 C8 CA B5 16
  can0  3C8   [8]  7F FF FF FF C8 CA B5 16
  can0  3C2   [8]  80 00 7E 7E C8 CA B5 16
  can0  3C3   [8]  80 00 0B 0E C8 CA B5 16
  can0  3C9   [8]  80 00 00 00 C8 CA B5 16
  can0  3C5   [8]  7F FF FD 0C C8 CA B5 16
  can0  3C7   [8]  80 00 0A F6 C8 CA B5 16
  can0  3C6   [8]  80 00 0A 78 C8 CA B5 16
  can0  3C4   [8]  80 00 00 8E C8 CA B5 16
  can0  3C8   [8]  80 00 00 00 C8 CA B5 16
  can0  3C2   [8]  80 00 88 25 C8 CA B5 16
  can0  3C3   [8]  80 00 0A 87 C8 CA B5 16
  can0  3C9   [8]  80 00 00 00 C8 CA B5 16
  can0  3C5   [8]  7F FF FD 06 C8 CA B5 16
  can0  3C7   [8]  80 00 09 9F C8 CA B5 16
  can0  3C6   [8]  80 00 09 26 C8 CA B5 16
  can0  3C4   [8]  80 00 00 9B C8 CA B5 16
  can0  3C8   [8]  7F FF FF FE C8 CA B5 16
  can0  3C2   [8]  80 00 91 F9 C8 CA B5 16
  can0  3C3   [8]  80 00 0B 44 C8 CA B5 16
  can0  3C9   [8]  80 00 00 01 C8 CA B5 16
  can0  3C5   [8]  7F FF FD 02 C8 CA B5 16
  can0  3C7   [8]  80 00 0B B6 C8 CA B5 16
  can0  3C6   [8]  80 00 09 53 C8 CA B5 16
  can0  3C4   [8]  80 00 00 8C C8 CA B5 16
  can0  3C8   [8]  80 00 00 02 C8 CA B5 16
  can0  3C2   [8]  80 00 81 A1 C8 CA B5 16
  can0  3C3   [8]  80 00 0A 70 C8 CA B5 16
  can0  3C9   [8]  80 00 00 00 C8 CA B5 16
  can0  3C5   [8]  7F FF FD 07 C8 CA B5 16
  can0  3C7   [8]  80 00 0A 86 C8 CA B5 16
  can0  3C6   [8]  80 00 0A 61 C8 CA B5 16
  can0  3C4   [8]  80 00 00 95 C8 CA B5 16
  can0  3C8   [8]  80 00 00 02 C8 CA B5 16
  can0  3C2   [8]  80 00 7B CA C8 CA B5 16
  can0  3C3   [8]  80 00 0A 2A C8 CA B5 16
  can0  3C9   [8]  80 00 00 03 C8 CA B5 16
  can0  3C5   [8]  7F FF FD 21 C8 CA B5 16
  can0  3C7   [8]  80 00 08 AF C8 CA B5 16
  can0  3C6   [8]  80 00 09 62 C8 CA B5 16
  can0  3C4   [8]  80 00 00 94 C8 CA B5 16
  can0  3C8   [8]  80 00 00 00 C8 CA B5 16
  can0  3C2   [8]  80 00 79 14 C8 CA B5 16
  can0  3C3   [8]  80 00 0A 32 C8 CA B5 16
  can0  3C9   [8]  80 00 00 00 C8 CA B5 16
  can0  3C5   [8]  7F FF FD 0B C8 CA B5 16
  can0  3C7   [8]  80 00 08 82 C8 CA B5 16
  can0  3C6   [8]  80 00 09 31 C8 CA B5 16
  can0  3C4   [8]  80 00 00 8E C8 CA B5 16
  can0  3C8   [8]  80 00 00 01 C8 CA B5 16
  can0  3C2   [8]  80 00 89 06 C8 CA B5 16
  can0  3C3   [8]  80 00 0B 2B C8 CA B5 16
  can0  3C9   [8]  80 00 00 00 C8 CA B5 16
  can0  3C5   [8]  7F FF FD 17 C8 CA B5 16
  can0  3C7   [8]  80 00 08 89 C8 CA B5 16
  can0  3C6   [8]  80 00 09 E7 C8 CA B5 16
  can0  3C4   [8]  80 00 00 9A C8 CA B5 16
  can0  3C8   [8]  80 00 00 01 C8 CA B5 16
  can0  3C2   [8]  80 00 8F C6 C8 CA B5 16
  can0  3C3   [8]  80 00 0B 10 C8 CA B5 16
  can0  3C9   [8]  7F FF FF FD C8 CA B5 16
  can0  3C5   [8]  7F FF FD 20 C8 CA B5 16
  can0  3C7   [8]  80 00 09 01 C8 CA B5 16
  can0  3C6   [8]  80 00 0A 3D C8 CA B5 16
  can0  3C4   [8]  80 00 00 91 C8 CA B5 16
  can0  3C8   [8]  80 00 00 00 C8 CA B5 16
  can0  000   [4]  0C E2 48 EF
  can0  3C2   [8]  80 00 83 0C C8 CA B5 16
  can0  3C3   [8]  80 00 0A 06 C8 CA B5 16
  can0  3C9   [8]  7F FF FF FC C8 CA B5 16
  can0  3C5   [8]  7F FF FD 0D C8 CA B5 16
  can0  3C7   [8]  80 00 09 BE C8 CA B5 16
  can0  3C6   [8]  80 00 08 F4 C8 CA B5 16
  can0  3C4   [8]  80 00 00 8F C8 CA B5 16
  can0  3C8   [8]  80 00 00 00 C8 CA B5 16
  can0  3C2   [8]  80 00 7D C5 C8 CA B5 16
  can0  3C3   [8]  80 00 0B 21 C8 CA B5 16
  can0  3C9   [8]  7F FF FF FF C8 CA B5 16
  can0  3C5   [8]  7F FF FD 24 C8 CA B5 16
  can0  3C7   [8]  80 00 09 CA C8 CA B5 16
  can0  3C6   [8]  80 00 08 FA C8 CA B5 16
  can0  3C4   [8]  80 00 00 A0 C8 CA B5 16
  can0  3C8   [8]  80 00 00 00 C8 CA B5 16
  can0  3C2   [8]  80 00 7B C3 C8 CA B5 16
  can0  3C3   [8]  80 00 0A E1 C8 CA B5 16
  can0  3C9   [8]  7F FF FF FF C8 CA B5 16
  can0  3C5   [8]  7F FF FD 10 C8 CA B5 16
  can0  3C7   [8]  80 00 0A E4 C8 CA B5 16
  can0  3C6   [8]  80 00 0A 3F C8 CA B5 16
  can0  3C4   [8]  80 00 00 92 C8 CA B5 16
  can0  3C8   [8]  80 00 00 00 C8 CA B5 16
  can0  3C2   [8]  80 00 89 67 C8 CA B5 16
  can0  3C3   [8]  80 00 0A A0 C8 CA B5 16
  can0  3C9   [8]  80 00 00 01 C8 CA B5 16
  can0  3C5   [8]  7F FF FD 10 C8 CA B5 16
  can0  3C7   [8]  80 00 09 69 C8 CA B5 16
  can0  3C6   [8]  80 00 09 17 C8 CA B5 16
  can0  3C4   [8]  80 00 00 92 C8 CA B5 16
  can0  3C8   [8]  80 00 00 01 C8 CA B5 16
  can0  3C2   [8]  80 00 91 BB C8 CA B5 16
  can0  3C3   [8]  80 00 0B FA C8 CA B5 16
  can0  3C9   [8]  80 00 00 00 C8 CA B5 16
  can0  3C5   [8]  7F FF FC EA C8 CA B5 16
  can0  3C7   [8]  80 00 0B C6 C8 CA B5 16
  can0  3C6   [8]  80 00 09 23 C8 CA B5 16
  can0  3C4   [8]  80 00 00 94 C8 CA B5 16
  can0  3C8   [8]  7F FF FF FF C8 CA B5 16
  can0  3C2   [8]  80 00 85 53 C8 CA B5 16
  can0  3C3   [8]  80 00 0A 69 C8 CA B5 16
  can0  3C9   [8]  80 00 00 02 C8 CA B5 16
  can0  3C5   [8]  7F FF FD 24 C8 CA B5 16
  can0  3C7   [8]  80 00 0A 79 C8 CA B5 16
  can0  3C6   [8]  80 00 0A 88 C8 CA B5 16
  can0  3C4   [8]  80 00 00 91 C8 CA B5 16
  can0  3C8   [8]  80 00 00 03 C8 CA B5 16
  can0  3C2   [8]  80 00 7C C1 C8 CA B5 16
  can0  3C3   [8]  80 00 0B 0A C8 CA B5 16
  can0  3C9   [8]  80 00 00 00 C8 CA B5 16
  can0  3C5   [8]  7F FF FD 24 C8 CA B5 16
  can0  3C7   [8]  80 00 08 B4 C8 CA B5 16
  can0  3C6   [8]  80 00 09 79 C8 CA B5 16
  can0  3C4   [8]  80 00 00 91 C8 CA B5 16
  can0  3C8   [8]  80 00 00 02 C8 CA B5 16
  can0  3C2   [8]  80 00 7C 41 C8 CA B5 16
  can0  3C3   [8]  80 00 0B 62 C8 CA B5 16
  can0  3C9   [8]  80 00 00 00 C8 CA B5 16
  can0  3C5   [8]  7F FF FD 36 C8 CA B5 16
  can0  3C7   [8]  80 00 08 6F C8 CA B5 16
  can0  3C6   [8]  80 00 09 4F C8 CA B5 16
  can0  3C4   [8]  80 00 00 A2 C8 CA B5 16
  can0  3C8   [8]  80 00 00 00 C8 CA B5 16
  can0  3C2   [8]  80 00 88 2C C8 CA B5 16
  can0  3C3   [8]  80 00 0A C8 C8 CA B5 16
  can0  3C9   [8]  7F FF FF FF C8 CA B5 16
  can0  3C5   [8]  7F FF FD 24 C8 CA B5 16
  can0  3C7   [8]  80 00 08 AF C8 CA B5 16
  can0  3C6   [8]  80 00 0A 14 C8 CA B5 16
  can0  3C4   [8]  80 00 00 85 C8 CA B5 16
  can0  3C8   [8]  80 00 00 02 C8 CA B5 16
  can0  3C2   [8]  80 00 8F 42 C8 CA B5 16
  can0  3C3   [8]  80 00 0A B5 C8 CA B5 16
  can0  3C9   [8]  80 00 00 00 C8 CA B5 16
  can0  3C5   [8]  7F FF FD 07 C8 CA B5 16
  can0  3C7   [8]  80 00 09 27 C8 CA B5 16
  can0  3C6   [8]  80 00 09 DA C8 CA B5 16
  can0  3C4   [8]  80 00 00 8D C8 CA B5 16
  can0  3C8   [8]  80 00 00 01 C8 CA B5 16
  can0  000   [4]  0C E4 48 E7
  can0  3C2   [8]  80 00 7E D3 C8 CA B5 16
  can0  3C3   [8]  80 00 0A 7B C8 CA B5 16
  can0  3C9   [8]  80 00 00 00 C8 CA B5 16
  can0  3C5   [8]  7F FF FD 21 C8 CA B5 16
  can0  3C7   [8]  80 00 09 C0 C8 CA B5 16
  can0  3C6   [8]  80 00 08 F5 C8 CA B5 16
  can0  3C4   [8]  80 00 00 94 C8 CA B5 16
  can0  3C8   [8]  80 00 00 01 C8 CA B5 16
  can0  3C2   [8]  80 00 7B C8 C8 CA B5 16
  can0  3C3   [8]  80 00 0B 6A C8 CA B5 16
  can0  3C9   [8]  80 00 00 00 C8 CA B5 16
  can0  3C5   [8]  7F FF FD 19 C8 CA B5 16
  can0  3C7   [8]  80 00 09 D4 C8 CA B5 16
  can0  3C6   [8]  80 00 09 30 C8 CA B5 16
  can0  3C4   [8]  80 00 00 8B C8 CA B5 16
  can0  3C8   [8]  7F FF FF FF C8 CA B5 16
  can0  3C2   [8]  80 00 7B B8 C8 CA B5 16
  can0  3C3   [8]  80 00 0A 11 C8 CA B5 16
  can0  3C9   [8]  7F FF FF FE C8 CA B5 16
  can0  3C5   [8]  7F FF FD 2C C8 CA B5 16
  can0  3C7   [8]  80 00 0A F0 C8 CA B5 16
  can0  3C6   [8]  80 00 0A 1E C8 CA B5 16
  can0  3C4   [8]  80 00 00 92 C8 CA B5 16
  can0  3C8   [8]  7F FF FF FE C8 CA B5 16
  can0  3C2   [8]  80 00 88 72 C8 CA B5 16
  can0  3C3   [8]  80 00 0A 87 C8 CA B5 16
  can0  3C9   [8]  7F FF FF FF C8 CA B5 16
  can0  3C5   [8]  7F FF FD 0A C8 CA B5 16
  can0  3C7   [8]  80 00 09 CC C8 CA B5 16
  can0  3C6   [8]  80 00 08 E2 C8 CA B5 16
  can0  3C4   [8]  80 00 00 94 C8 CA B5 16
  can0  3C8   [8]  80 00 00 02 C8 CA B5 16
  can0  3C2   [8]  80 00 91 FD C8 CA B5 16
  can0  3C3   [8]  80 00 0B 72 C8 CA B5 16
  can0  3C9   [8]  7F FF FF FE C8 CA B5 16
  can0  3C5   [8]  7F FF FD 0B C8 CA B5 16
  can0  3C7   [8]  80 00 0C 0A C8 CA B5 16
  can0  3C6   [8]  80 00 09 52 C8 CA B5 16
  can0  3C4   [8]  80 00 00 97 C8 CA B5 16
  can0  3C8   [8]  80 00 00 01 C8 CA B5 16
  can0  3C2   [8]  80 00 83 E6 C8 CA B5 16
  can0  3C3   [8]  80 00 0A 7E C8 CA B5 16
  can0  3C9   [8]  80 00 00 00 C8 CA B5 16
  can0  3C5   [8]  7F FF FC F5 C8 CA B5 16
  can0  3C7   [8]  80 00 0A 13 C8 CA B5 16
  can0  3C6   [8]  80 00 0A 6A C8 CA B5 16
  can0  3C4   [8]  80 00 00 90 C8 CA B5 16
  can0  3C8   [8]  80 00 00 00 C8 CA B5 16
  can0  3C2   [8]  80 00 7B C1 C8 CA B5 16
  can0  3C3   [8]  80 00 0A 44 C8 CA B5 16
  can0  3C9   [8]  7F FF FF FE C8 CA B5 16
  can0  3C5   [8]  7F FF FD 2D C8 CA B5 16
  can0  3C7   [8]  80 00 08 C0 C8 CA B5 16
  can0  3C6   [8]  80 00 09 82 C8 CA B5 16
  can0  3C4   [8]  80 00 00 85 C8 CA B5 16
  can0  3C8   [8]  80 00 00 00 C8 CA B5 16
  can0  3C2   [8]  80 00 7C 74 C8 CA B5 16
  can0  3C3   [8]  80 00 0B 31 C8 CA B5 16
  can0  3C9   [8]  7F FF FF FF C8 CA B5 16
  can0  3C5   [8]  7F FF FD 03 C8 CA B5 16
  can0  3C7   [8]  80 00 08 B3 C8 CA B5 16
  can0  3C6   [8]  80 00 09 73 C8 CA B5 16
  can0  3C4   [8]  80 00 00 89 C8 CA B5 16
  can0  3C8   [8]  7F FF FF FE C8 CA B5 16
  can0  3C2   [8]  80 00 87 55 C8 CA B5 16
  can0  3C3   [8]  80 00 0B 3A C8 CA B5 16
  can0  3C9   [8]  80 00 00 00 C8 CA B5 16
  can0  3C5   [8]  7F FF FD 25 C8 CA B5 16
  can0  3C7   [8]  80 00 08 CD C8 CA B5 16
  can0  3C6   [8]  80 00 0A 19 C8 CA B5 16
  can0  3C4   [8]  80 00 00 96 C8 CA B5 16
  can0  3C8   [8]  80 00 00 02 C8 CA B5 16
  can0  3C2   [8]  80 00 90 46 C8 CA B5 16
  can0  3C3   [8]  80 00 0B 61 C8 CA B5 16
  can0  3C9   [8]  80 00 00 00 C8 CA B5 16
  can0  3C5   [8]  7F FF FC F4 C8 CA B5 16
  can0  3C7   [8]  80 00 09 13 C8 CA B5 16
  can0  3C6   [8]  80 00 09 F6 C8 CA B5 16
  can0  3C4   [8]  80 00 00 8C C8 CA B5 16
  can0  3C8   [8]  80 00 00 03 C8 CA B5 16
  can0  3C2   [8]  80 00 82 8F C8 CA B5 16
  can0  000   [4]  0C E3 48 FE
  can0  3C3   [8]  80 00 0A C9 C8 CA B5 16
  can0  3C9   [8]  80 00 00 00 C8 CA B5 16
  can0  3C5   [8]  7F FF FD 18 C8 CA B5 16
  can0  3C7   [8]  80 00 09 87 C8 CA B5 16
  can0  3C6   [8]  80 00 08 D3 C8 CA B5 16
  can0  3C4   [8]  80 00 00 92 C8 CA B5 16
  can0  3C8   [8]  80 00 00 01 C8 CA B5 16
  can0  3C2   [8]  80 00 7B 72 C8 CA B5 16
  can0  3C3   [8]  80 00 0A CD C8 CA B5 16
  can0  3C9   [8]  80 00 00 00 C8 CA B5 16
  can0  3C5   [8]  7F FF FD 1A C8 CA B5 16
  can0  3C7   [8]  80 00 09 B0 C8 CA B5 16
  can0  3C6   [8]  80 00 09 0D C8 CA B5 16
  can0  3C4   [8]  80 00 00 9B C8 CA B5 16
  can0  3C8   [8]  80 00 00 00 C8 CA B5 16
  can0  3C2   [8]  80 00 7C 4F C8 CA B5 16
  can0  3C3   [8]  80 00 0A B6 C8 CA B5 16
  can0  3C9   [8]  80 00 00 02 C8 CA B5 16
  can0  3C5   [8]  7F FF FD 1E C8 CA B5 16
  can0  3C7   [8]  80 00 0A C8 C8 CA B5 16
  can0  3C6   [8]  80 00 09 F5 C8 CA B5 16
  can0  3C4   [8]  80 00 00 84 C8 CA B5 16
  can0  3C8   [8]  80 00 00 01 C8 CA B5 16
  can0  3C2   [8]  80 00 88 15 C8 CA B5 16
  can0  3C3   [8]  80 00 0A F5 C8 CA B5 16
  can0  3C9   [8]  80 00 00 02 C8 CA B5 16
  can0  3C5   [8]  7F FF FD 22 C8 CA B5 16
  can0  3C7   [8]  80 00 09 A0 C8 CA B5 16
  can0  3C6   [8]  80 00 09 4F C8 CA B5 16
  can0  3C4   [8]  80 00 00 90 C8 CA B5 16
  can0  3C8   [8]  80 00 00 01 C8 CA B5 16
  can0  3C2   [8]  80 00 92 F2 C8 CA B5 16
  can0  3C3   [8]  80 00 0B E8 C8 CA B5 16
  can0  3C9   [8]  80 00 00 00 C8 CA B5 16
  can0  3C5   [8]  7F FF FD 35 C8 CA B5 16
  can0  3C7   [8]  80 00 0B 58 C8 CA B5 16
  can0  3C6   [8]  80 00 09 53 C8 CA B5 16
  can0  3C4   [8]  80 00 00 93 C8 CA B5 16
  can0  3C8   [8]  80 00 00 00 C8 CA B5 16
  can0  3C2   [8]  80 00 81 A7 C8 CA B5 16
  can0  3C3   [8]  80 00 0B 3B C8 CA B5 16
  can0  3C9   [8]  80 00 00 00 C8 CA B5 16
  can0  3C5   [8]  7F FF FD 03 C8 CA B5 16
  can0  3C7   [8]  80 00 09 F5 C8 CA B5 16
  can0  3C6   [8]  80 00 0A C4 C8 CA B5 16
  can0  3C4   [8]  80 00 00 94 C8 CA B5 16
  can0  3C8   [8]  80 00 00 01 C8 CA B5 16
  can0  3C2   [8]  80 00 7C 19 C8 CA B5 16
  can0  3C3   [8]  80 00 0A F8 C8 CA B5 16
  can0  3C9   [8]  80 00 00 00 C8 CA B5 16
  can0  3C5   [8]  7F FF FD 2B C8 CA B5 16
  can0  3C7   [8]  80 00 08 D7 C8 CA B5 16
  can0  3C6   [8]  80 00 09 5A C8 CA B5 16
  can0  3C4   [8]  80 00 00 8F C8 CA B5 16
  can0  3C8   [8]  80 00 00 00 C8 CA B5 16
  can0  3C2   [8]  80 00 7C 6E C8 CA B5 16
  can0  3C3   [8]  80 00 0B D1 C8 CA B5 16
  can0  3C9   [8]  7F FF FF FF C8 CA B5 16
  can0  3C5   [8]  7F FF FD 22 C8 CA B5 16
  can0  3C7   [8]  80 00 08 9F C8 CA B5 16
  can0  3C6   [8]  80 00 09 21 C8 CA B5 16
  can0  3C4   [8]  80 00 00 96 C8 CA B5 16
  can0  3C8   [8]  80 00 00 02 C8 CA B5 16
  can0  3C2   [8]  80 00 88 47 C8 CA B5 16
  can0  3C3   [8]  80 00 0A E1 C8 CA B5 16
  can0  3C9   [8]  80 00 00 00 C8 CA B5 16
  can0  3C5   [8]  7F FF FD 18 C8 CA B5 16
  can0  3C7   [8]  80 00 08 72 C8 CA B5 16
  can0  3C6   [8]  80 00 0A 29 C8 CA B5 16
  can0  3C4   [8]  80 00 00 8F C8 CA B5 16
  can0  3C8   [8]  80 00 00 03 C8 CA B5 16
  can0  3C2   [8]  80 00 8E 0C C8 CA B5 16
  can0  3C3   [8]  80 00 09 DA C8 CA B5 16
  can0  3C9   [8]  7F FF FF FF C8 CA B5 16
  can0  3C5   [8]  7F FF FD 0C C8 CA B5 16
  can0  3C7   [8]  80 00 09 2F C8 CA B5 16
  can0  3C6   [8]  80 00 0A 31 C8 CA B5 16
  can0  3C4   [8]  80 00 00 90 C8 CA B5 16
  can0  3C8   [8]  80 00 00 01 C8 CA B5 16
  can0  3C2   [8]  80 00 85 62 C8 CA B5 16
  can0  000   [4]  0C E4 48 E8
  can0  3C3   [8]  80 00 0B 9F C8 CA B5 16
  can0  3C9   [8]  7F FF FF FD C8 CA B5 16
  can0  3C5   [8]  7F FF FD 11 C8 CA B5 16
  can0  3C7   [8]  80 00 09 7A C8 CA B5 16
  can0  3C6   [8]  80 00 09 44 C8 CA B5 16
  can0  3C4   [8]  80 00 00 99 C8 CA B5 16
  can0  3C8   [8]  80 00 00 00 C8 CA B5 16
  can0  3C2   [8]  80 00 7C 3E C8 CA B5 16
  can0  3C3   [8]  80 00 0B 0E C8 CA B5 16
  can0  3C9   [8]  7F FF FF FF C8 CA B5 16
  can0  3C5   [8]  7F FF FD 0C C8 CA B5 16
  can0  3C7   [8]  80 00 09 C3 C8 CA B5 16
  can0  3C6   [8]  80 00 09 10 C8 CA B5 16
  can0  3C4   [8]  80 00 00 8D C8 CA B5 16
  can0  3C8   [8]  7F FF FF FF C8 CA B5 16
  can0  3C2   [8]  80 00 7D 23 C8 CA B5 16
  can0  3C3   [8]  80 00 0A 8E C8 CA B5 16
  can0  3C9   [8]  80 00 00 00 C8 CA B5 16
  can0  3C5   [8]  7F FF FD 17 C8 CA B5 16
  can0  3C7   [8]  80 00 0A F0 C8 CA B5 16
  can0  3C6   [8]  80 00 0A 6C C8 CA B5 16
  can0  3C4   [8]  80 00 00 89 C8 CA B5 16
  can0  3C8   [8]  80 00 00 00 C8 CA B5 16
  can0  3C2   [8]  80 00 8B 6D C8 CA B5 16
  can0  3C3   [8]  80 00 0B CD C8 CA B5 16
  can0  3C9   [8]  80 00 00 02 C8 CA B5 16
  can0  3C5   [8]  7F FF FD 12 C8 CA B5 16
  can0  3C7   [8]  80 00 09 8A C8 CA B5 16
  can0  3C6   [8]  80 00 08 F9 C8 CA B5 16
  can0  3C4   [8]  80 00 00 93 C8 CA B5 16
  can0  3C8   [8]  80 00 00 02 C8 CA B5 16
  can0  3C2   [8]  80 00 92 06 C8 CA B5 16
  can0  3C3   [8]  80 00 0B 75 C8 CA B5 16
  can0  3C9   [8]  80 00 00 01 C8 CA B5 16
  can0  3C5   [8]  7F FF FD 12 C8 CA B5 16
  can0  3C7   [8]  80 00 0B 3E C8 CA B5 16
  can0  3C6   [8]  80 00 09 46 C8 CA B5 16
  can0  3C4   [8]  80 00 00 89 C8 CA B5 16
  can0  3C8   [8]  7F FF FF FD C8 CA B5 16
  can0  3C2   [8]  80 00 85 FE C8 CA B5 16
  can0  3C3   [8]  80 00 0B 18 C8 CA B5 16
  can0  3C9   [8]  80 00 00 00 C8 CA B5 16
  can0  3C5   [8]  7F FF FD 05 C8 CA B5 16
  can0  3C7   [8]  80 00 0A A7 C8 CA B5 16
  can0  3C6   [8]  80 00 0A 54 C8 CA B5 16
  can0  3C4   [8]  80 00 00 94 C8 CA B5 16
  can0  3C8   [8]  7F FF FF FF C8 CA B5 16
  can0  3C2   [8]  80 00 7E 34 C8 CA B5 16
  can0  3C3   [8]  80 00 0B 12 C8 CA B5 16
  can0  3C9   [8]  80 00 00 00 C8 CA B5 16
  can0  3C5   [8]  7F FF FD 2F C8 CA B5 16
  can0  3C7   [8]  80 00 09 10 C8 CA B5 16
  can0  3C6   [8]  80 00 09 7A C8 CA B5 16
  can0  3C4   [8]  80 00 00 8C C8 CA B5 16
  can0  3C8   [8]  80 00 00 00 C8 CA B5 16
  can0  3C2   [8]  80 00 7C 2A C8 CA B5 16
  can0  3C3   [8]  80 00 0B 39 C8 CA B5 16
  can0  3C9   [8]  80 00 00 00 C8 CA B5 16
  can0  3C5   [8]  7F FF FD 26 C8 CA B5 16
  can0  3C7   [8]  80 00 08 77 C8 CA B5 16
  can0  3C6   [8]  80 00 09 66 C8 CA B5 16
  can0  3C4   [8]  80 00 00 99 C8 CA B5 16
  can0  3C8   [8]  80 00 00 00 C8 CA B5 16
  can0  3C2   [8]  80 00 88 1E C8 CA B5 16
  can0  3C3   [8]  80 00 0B 34 C8 CA B5 16
  can0  3C9   [8]  80 00 00 00 C8 CA B5 16
  can0  3C5   [8]  7F FF FD 3D C8 CA B5 16
  can0  3C7   [8]  80 00 08 AF C8 CA B5 16
  can0  3C6   [8]  80 00 09 FE C8 CA B5 16
  can0  3C4   [8]  80 00 00 99 C8 CA B5 16
  can0  3C8   [8]  80 00 00 00 C8 CA B5 16
  can0  3C2   [8]  80 00 91 AC C8 CA B5 16
  can0  3C3   [8]  80 00 0C 00 C8 CA B5 16
  can0  3C9   [8]  7F FF FF FD C8 CA B5 16
  can0  3C5   [8]  7F FF FD 0C C8 CA B5 16
  can0  3C7   [8]  80 00 09 0D C8 CA B5 16
  can0  3C6   [8]  80 00 0A 17 C8 CA B5 16
  can0  3C4   [8]  80 00 00 90 C8 CA B5 16
  can0  3C8   [8]  80 00 00 00 C8 CA B5 16
  can0  3C2   [8]  80 00 81 D3 C8 CA B5 16
  can0  000   [4]  0C E3 48 E5
  can0  3C3   [8]  80 00 0B 23 C8 CA B5 16
  can0  3C9   [8]  7F FF FF FF C8 CA B5 16
  can0  3C5   [8]  7F FF FD 2D C8 CA B5 16
  can0  3C7   [8]  80 00 09 4E C8 CA B5 16
  can0  3C6   [8]  80 00 08 FA C8 CA B5 16
  can0  3C4   [8]  80 00 00 8B C8 CA B5 16
  can0  3C8   [8]  80 00 00 00 C8 CA B5 16
  can0  3C2   [8]  80 00 7B 10 C8 CA B5 16
  can0  3C3   [8]  80 00 0B 5E C8 CA B5 16
  can0  3C9   [8]  80 00 00 00 C8 CA B5 16
  can0  3C5   [8]  7F FF FD 17 C8 CA B5 16
  can0  3C7   [8]  80 00 09 91 C8 CA B5 16
  can0  3C6   [8]  80 00 09 22 C8 CA B5 16
  can0  3C4   [8]  80 00 00 92 C8 CA B5 16
  can0  3C8   [8]  7F FF FF FF C8 CA B5 16
  can0  3C2   [8]  80 00 7C 1F C8 CA B5 16
  can0  3C3   [8]  80 00 0A 8B C8 CA B5 16
  can0  3C9   [8]  7F FF FF FE C8 CA B5 16
  can0  3C5   [8]  7F FF FD 3D C8 CA B5 16
  can0  3C7   [8]  80 00 0A AB C8 CA B5 16
  can0  3C6   [8]  80 00 0A 2C C8 CA B5 16
  can0  3C4   [8]  80 00 00 91 C8 CA B5 16
  can0  3C8   [8]  80 00 00 00 C8 CA B5 16
  can0  3C2   [8]  80 00 8A 45 C8 CA B5 16
  can0  3C3   [8]  80 00 0C 2A C8 CA B5 16
  can0  3C9   [8]  80 00 00 01 C8 CA B5 16
  can0  3C5   [8]  7F FF FD 1A C8 CA B5 16
  can0  3C7   [8]  80 00 09 8C C8 CA B5 16
  can0  3C6   [8]  80 00 09 15 C8 CA B5 16
  can0  3C4   [8]  80 00 00 87 C8 CA B5 16
  can0  3C8   [8]  7F FF FF FF C8 CA B5 16
  can0  3C2   [8]  80 00 92 5E C8 CA B5 16
  can0  3C3   [8]  80 00 0B 1E C8 CA B5 16
  can0  3C9   [8]  80 00 00 00 C8 CA B5 16
  can0  3C5   [8]  7F FF FC F9 C8 CA B5 16
  can0  3C7   [8]  80 00 0B 1A C8 CA B5 16
  can0  3C6   [8]  80 00 09 1E C8 CA B5 16
  can0  3C4   [8]  80 00 00 98 C8 CA B5 16
  can0  3C8   [8]  80 00 00 01 C8 CA B5 16
  can0  3C2   [8]  80 00 85 FD C8 CA B5 16
  can0  3C3   [8]  80 00 0B 5E C8 CA B5 16
  can0  3C9   [8]  7F FF FF FF C8 CA B5 16
  can0  3C5   [8]  7F FF FD 17 C8 CA B5 16
  can0  3C7   [8]  80 00 0A 4E C8 CA B5 16
  can0  3C6   [8]  80 00 0A 92 C8 CA B5 16
  can0  3C4   [8]  80 00 00 85 C8 CA B5 16
  can0  3C8   [8]  80 00 00 00 C8 CA B5 16
  can0  3C2   [8]  80 00 7F 54 C8 CA B5 16
  can0  3C3   [8]  80 00 0C 58 C8 CA B5 16
  can0  3C9   [8]  80 00 00 01 C8 CA B5 16
  can0  3C5   [8]  7F FF FD 0D C8 CA B5 16
  can0  3C7   [8]  80 00 08 AE C8 CA B5 16
  can0  3C6   [8]  80 00 09 85 C8 CA B5 16
  can0  3C4   [8]  80 00 00 92 C8 CA B5 16
  can0  3C8   [8]  80 00 00 00 C8 CA B5 16
  can0  3C2   [8]  80 00 7B 54 C8 CA B5 16
  can0  3C3   [8]  80 00 0A B2 C8 CA B5 16
  can0  3C9   [8]  80 00 00 01 C8 CA B5 16
  can0  3C5   [8]  7F FF FD 2E C8 CA B5 16
  can0  3C7   [8]  80 00 08 82 C8 CA B5 16
  can0  3C6   [8]  80 00 09 50 C8 CA B5 16
  can0  3C4   [8]  80 00 00 96 C8 CA B5 16
  can0  3C8   [8]  80 00 00 00 C8 CA B5 16
  can0  3C2   [8]  80 00 87 D1 C8 CA B5 16
  can0  3C3   [8]  80 00 0B 08 C8 CA B5 16
  can0  3C9   [8]  7F FF FF FF C8 CA B5 16
  can0  3C5   [8]  7F FF FD 24 C8 CA B5 16
  can0  3C7   [8]  80 00 08 B8 C8 CA B5 16
  can0  3C6   [8]  80 00 09 FD C8 CA B5 16
  can0  3C4   [8]  80 00 00 94 C8 CA B5 16
  can0  3C8   [8]  80 00 00 00 C8 CA B5 16
  can0  3C2   [8]  80 00 91 66 C8 CA B5 16
  can0  3C3   [8]  80 00 0B A6 C8 CA B5 16
  can0  3C9   [8]  80 00 00 00 C8 CA B5 16
  can0  3C5   [8]  7F FF FD 03 C8 CA B5 16
  can0  3C7   [8]  80 00 09 5C C8 CA B5 16
  can0  3C6   [8]  80 00 09 EE C8 CA B5 16
  can0  3C4   [8]  80 00 00 91 C8 CA B5 16
  can0  3C8   [8]  80 00 00 00 C8 CA B5 16
  can0  3C2   [8]  80 00 84 35 C8 CA B5 16
  can0  000   [4]  0C E3 48 FE
  can0  3C3   [8]  80 00 09 D5 C8 CA B5 16
  can0  3C5   [8]  7F FF FD 24 C8 CA B5 16
  can0  3C9   [8]  7F FF FF FF C8 CA B5 16
  can0  3C7   [8]  80 00 09 66 C8 CA B5 16
  can0  3C6   [8]  80 00 09 15 C8 CA B5 16
  can0  3C4   [8]  80 00 00 95 C8 CA B5 16
  can0  3C8   [8]  80 00 00 00 C8 CA B5 16
  can0  3C2   [8]  80 00 7B 62 C8 CA B5 16
  can0  3C3   [8]  80 00 0B 4E C8 CA B5 16
  can0  3C9   [8]  7F FF FF FD C8 CA B5 16
  can0  3C5   [8]  7F FF FD 1D C8 CA B5 16
  can0  3C7   [8]  80 00 09 B0 C8 CA B5 16
  can0  3C6   [8]  80 00 09 28 C8 CA B5 16
  can0  3C4   [8]  80 00 00 8A C8 CA B5 16
  can0  3C8   [8]  80 00 00 00 C8 CA B5 16
  can0  3C2   [8]  80 00 80 15 C8 CA B5 16
  can0  3C3   [8]  80 00 0C 7A C8 CA B5 16
  can0  3C9   [8]  7F FF FF FE C8 CA B5 16
  can0  3C5   [8]  7F FF FD 08 C8 CA B5 16
  can0  3C7   [8]  80 00 0A D7 C8 CA B5 16
  can0  3C6   [8]  80 00 0A 66 C8 CA B5 16
  can0  3C4   [8]  80 00 00 8A C8 CA B5 16
  can0  3C8   [8]  80 00 00 03 C8 CA B5 16
  can0  3C2   [8]  80 00 89 81 C8 CA B5 16
  can0  3C3   [8]  80 00 0B 05 C8 CA B5 16
  can0  3C9   [8]  80 00 00 00 C8 CA B5 16
  can0  3C5   [8]  7F FF FD 1C C8 CA B5 16
  can0  3C7   [8]  80 00 09 8B C8 CA B5 16
  can0  3C6   [8]  80 00 08 FD C8 CA B5 16
  can0  3C4   [8]  80 00 00 98 C8 CA B5 16
  can0  3C8   [8]  80 00 00 00 C8 CA B5 16
  can0  3C2   [8]  80 00 93 20 C8 CA B5 16
  can0  3C3   [8]  80 00 0C 44 C8 CA B5 16
  can0  3C9   [8]  80 00 00 00 C8 CA B5 16
  can0  3C5   [8]  7F FF FD 18 C8 CA B5 16
  can0  3C7   [8]  80 00 0B 4D C8 CA B5 16
  can0  3C6   [8]  80 00 09 6B C8 CA B5 16
  can0  3C4   [8]  80 00 00 86 C8 CA B5 16
  can0  3C8   [8]  80 00 00 00 C8 CA B5 16
  can0  3C2   [8]  80 00 86 F7 C8 CA B5 16
  can0  3C3   [8]  80 00 0C 78 C8 CA B5 16
  can0  3C9   [8]  7F FF FF FF C8 CA B5 16
  can0  3C5   [8]  7F FF FC F5 C8 CA B5 16
  can0  3C7   [8]  80 00 0A D2 C8 CA B5 16
